!Agilent Technologies,E8363B,MY43030801,A.06.04.21
!Agilent E8363B: A.06.04.21
!Date: Friday, October 24, 2025 08:31:27
!Correction: S11(Full 2 Port(1,2)) S21(Full 2 Port(1,2)) S12(Full 2 Port(1,2)) S22(Full 2 Port(1,2)) 
!S2P File: Measurements: S11, S21, S12, S22:
# Hz S  MA   R 50
1450000000 9.388041e-001 9.117966e+001 3.336048e-001 -1.224437e+002 3.334658e-001 -1.227829e+002 7.705685e-001 7.758217e+001
1452500000 9.394838e-001 8.968642e+001 3.378682e-001 -1.232653e+002 3.376513e-001 -1.232903e+002 7.708448e-001 7.712881e+001
1455000000 9.414043e-001 8.819296e+001 3.400004e-001 -1.239872e+002 3.416328e-001 -1.239632e+002 7.692766e-001 7.666823e+001
1457500000 9.413502e-001 8.664146e+001 3.442566e-001 -1.244850e+002 3.451194e-001 -1.249781e+002 7.708553e-001 7.618104e+001
1460000000 9.377041e-001 8.527187e+001 3.459737e-001 -1.252893e+002 3.464136e-001 -1.254880e+002 7.677561e-001 7.583539e+001
1462500000 9.352241e-001 8.406674e+001 3.483589e-001 -1.260099e+002 3.483074e-001 -1.260459e+002 7.659991e-001 7.540205e+001
1465000000 9.356168e-001 8.286339e+001 3.498397e-001 -1.264334e+002 3.504051e-001 -1.266304e+002 7.648467e-001 7.506940e+001
1467500000 9.281664e-001 8.155329e+001 3.511917e-001 -1.270799e+002 3.520706e-001 -1.275447e+002 7.630943e-001 7.462929e+001
1470000000 9.219835e-001 8.030205e+001 3.514969e-001 -1.280449e+002 3.530013e-001 -1.282181e+002 7.601507e-001 7.407233e+001
1472500000 9.182758e-001 7.933502e+001 3.535695e-001 -1.286776e+002 3.530908e-001 -1.285810e+002 7.600284e-001 7.376366e+001
1475000000 9.128693e-001 7.839630e+001 3.524030e-001 -1.289288e+002 3.537497e-001 -1.290878e+002 7.564530e-001 7.354874e+001
1477500000 9.053633e-001 7.757703e+001 3.532442e-001 -1.293721e+002 3.541085e-001 -1.296240e+002 7.538949e-001 7.304460e+001
1480000000 8.962087e-001 7.664160e+001 3.532886e-001 -1.301663e+002 3.540283e-001 -1.304237e+002 7.518265e-001 7.247378e+001
1482500000 8.941140e-001 7.552540e+001 3.539403e-001 -1.306568e+002 3.549325e-001 -1.308487e+002 7.498203e-001 7.216587e+001
1485000000 8.865736e-001 7.499878e+001 3.543483e-001 -1.309308e+002 3.565979e-001 -1.310561e+002 7.503269e-001 7.190875e+001
1487500000 8.824812e-001 7.411440e+001 3.552181e-001 -1.314460e+002 3.557048e-001 -1.318422e+002 7.471679e-001 7.131876e+001
1490000000 8.772749e-001 7.356422e+001 3.559989e-001 -1.318475e+002 3.564526e-001 -1.320770e+002 7.477512e-001 7.103950e+001
1492500000 8.664064e-001 7.274915e+001 3.547069e-001 -1.322782e+002 3.549065e-001 -1.324509e+002 7.431254e-001 7.076279e+001
1495000000 8.613573e-001 7.207451e+001 3.548607e-001 -1.326373e+002 3.551538e-001 -1.326579e+002 7.419240e-001 7.049093e+001
1497500000 8.569972e-001 7.130357e+001 3.550450e-001 -1.331401e+002 3.555885e-001 -1.330363e+002 7.406228e-001 7.013340e+001
1500000000 8.486631e-001 7.080943e+001 3.549877e-001 -1.332846e+002 3.547779e-001 -1.334682e+002 7.373242e-001 6.975032e+001
1502500000 8.455469e-001 7.026338e+001 3.553165e-001 -1.337282e+002 3.563195e-001 -1.338841e+002 7.361518e-001 6.934103e+001
1505000000 8.388726e-001 6.942636e+001 3.550422e-001 -1.341510e+002 3.561535e-001 -1.342341e+002 7.347925e-001 6.895882e+001
1507500000 8.376266e-001 6.900196e+001 3.553672e-001 -1.344265e+002 3.566462e-001 -1.345673e+002 7.320879e-001 6.866283e+001
1510000000 8.279407e-001 6.847233e+001 3.559123e-001 -1.347116e+002 3.551611e-001 -1.348467e+002 7.314055e-001 6.828196e+001
1512500000 8.248489e-001 6.798376e+001 3.555847e-001 -1.348286e+002 3.558494e-001 -1.352838e+002 7.294341e-001 6.797435e+001
1515000000 8.196365e-001 6.758657e+001 3.551549e-001 -1.351766e+002 3.553586e-001 -1.353952e+002 7.266343e-001 6.760831e+001
1517500000 8.146904e-001 6.723064e+001 3.542232e-001 -1.354135e+002 3.566680e-001 -1.355918e+002 7.250390e-001 6.730242e+001
1520000000 8.087359e-001 6.635320e+001 3.548235e-001 -1.360215e+002 3.553122e-001 -1.359240e+002 7.231069e-001 6.705728e+001
1522500000 8.038844e-001 6.602503e+001 3.547719e-001 -1.360539e+002 3.564691e-001 -1.362024e+002 7.201180e-001 6.667185e+001
1525000000 7.986243e-001 6.537586e+001 3.555022e-001 -1.363533e+002 3.556712e-001 -1.366505e+002 7.195600e-001 6.636610e+001
1527500000 7.966509e-001 6.520616e+001 3.555464e-001 -1.364933e+002 3.567750e-001 -1.367325e+002 7.185291e-001 6.604900e+001
1530000000 7.920020e-001 6.469376e+001 3.566408e-001 -1.368337e+002 3.576517e-001 -1.370502e+002 7.171793e-001 6.561964e+001
1532500000 7.879047e-001 6.426743e+001 3.559962e-001 -1.370105e+002 3.561387e-001 -1.371671e+002 7.124428e-001 6.538683e+001
1535000000 7.831642e-001 6.385323e+001 3.553421e-001 -1.372974e+002 3.567085e-001 -1.374242e+002 7.105114e-001 6.513667e+001
1537500000 7.799724e-001 6.352711e+001 3.571285e-001 -1.376066e+002 3.571286e-001 -1.375648e+002 7.111449e-001 6.470393e+001
1540000000 7.755559e-001 6.329336e+001 3.566751e-001 -1.376420e+002 3.570065e-001 -1.377776e+002 7.084584e-001 6.447949e+001
1542500000 7.706630e-001 6.247295e+001 3.566843e-001 -1.380686e+002 3.575927e-001 -1.381264e+002 7.068598e-001 6.407871e+001
1545000000 7.672211e-001 6.217682e+001 3.578674e-001 -1.382474e+002 3.582320e-001 -1.383733e+002 7.049369e-001 6.380420e+001
1547500000 7.628989e-001 6.171788e+001 3.571238e-001 -1.385385e+002 3.577145e-001 -1.387559e+002 7.028391e-001 6.342572e+001
1550000000 7.611983e-001 6.144262e+001 3.576161e-001 -1.386832e+002 3.592413e-001 -1.388724e+002 7.013071e-001 6.311631e+001
1552500000 7.556643e-001 6.095307e+001 3.587821e-001 -1.390396e+002 3.580884e-001 -1.390645e+002 7.005316e-001 6.277753e+001
1555000000 7.525334e-001 6.083185e+001 3.583811e-001 -1.391885e+002 3.595338e-001 -1.391768e+002 6.993154e-001 6.254207e+001
1557500000 7.511131e-001 6.040098e+001 3.577796e-001 -1.393290e+002 3.589130e-001 -1.395704e+002 6.946212e-001 6.225326e+001
1560000000 7.464909e-001 5.988366e+001 3.582658e-001 -1.397793e+002 3.583789e-001 -1.400881e+002 6.932397e-001 6.169394e+001
1562500000 7.406064e-001 5.951157e+001 3.582761e-001 -1.399016e+002 3.587500e-001 -1.400104e+002 6.911370e-001 6.156676e+001
1565000000 7.392094e-001 5.928740e+001 3.582632e-001 -1.399936e+002 3.594730e-001 -1.403342e+002 6.907551e-001 6.128572e+001
1567500000 7.341950e-001 5.903445e+001 3.576806e-001 -1.403186e+002 3.593019e-001 -1.402933e+002 6.884640e-001 6.111139e+001
1570000000 7.331883e-001 5.851084e+001 3.582876e-001 -1.404766e+002 3.591414e-001 -1.406252e+002 6.854620e-001 6.083289e+001
1572500000 7.307252e-001 5.809114e+001 3.591269e-001 -1.408759e+002 3.607794e-001 -1.408863e+002 6.875652e-001 6.040563e+001
1575000000 7.266637e-001 5.782038e+001 3.586642e-001 -1.408979e+002 3.581510e-001 -1.410417e+002 6.827206e-001 6.014121e+001
1577500000 7.260377e-001 5.764926e+001 3.591290e-001 -1.410655e+002 3.588116e-001 -1.412692e+002 6.822228e-001 5.975621e+001
1580000000 7.210556e-001 5.733344e+001 3.584697e-001 -1.412090e+002 3.601118e-001 -1.414770e+002 6.802968e-001 5.937585e+001
1582500000 7.195285e-001 5.674523e+001 3.588616e-001 -1.413145e+002 3.593904e-001 -1.414856e+002 6.786444e-001 5.929790e+001
1585000000 7.156237e-001 5.650186e+001 3.583597e-001 -1.416440e+002 3.596318e-001 -1.416124e+002 6.769384e-001 5.893811e+001
1587500000 7.125269e-001 5.618357e+001 3.595949e-001 -1.417255e+002 3.594815e-001 -1.416371e+002 6.760825e-001 5.874901e+001
1590000000 7.113304e-001 5.599566e+001 3.594210e-001 -1.417793e+002 3.611980e-001 -1.417926e+002 6.758788e-001 5.831104e+001
1592500000 7.073920e-001 5.555460e+001 3.598475e-001 -1.418334e+002 3.598323e-001 -1.419522e+002 6.717672e-001 5.809258e+001
1595000000 7.056038e-001 5.538734e+001 3.613925e-001 -1.419778e+002 3.617709e-001 -1.420327e+002 6.727978e-001 5.770747e+001
1597500000 7.009812e-001 5.481549e+001 3.608815e-001 -1.421475e+002 3.618417e-001 -1.423298e+002 6.697543e-001 5.732755e+001
1600000000 7.007459e-001 5.458183e+001 3.631181e-001 -1.422201e+002 3.624127e-001 -1.423692e+002 6.696411e-001 5.710992e+001
1602500000 6.971812e-001 5.440091e+001 3.624435e-001 -1.423489e+002 3.643783e-001 -1.425547e+002 6.686479e-001 5.682833e+001
1605000000 6.953626e-001 5.398719e+001 3.630854e-001 -1.424630e+002 3.646286e-001 -1.427989e+002 6.653716e-001 5.640985e+001
1607500000 6.919800e-001 5.372544e+001 3.641127e-001 -1.427537e+002 3.645177e-001 -1.428416e+002 6.640598e-001 5.615306e+001
1610000000 6.919715e-001 5.341332e+001 3.659644e-001 -1.428200e+002 3.654124e-001 -1.429383e+002 6.630024e-001 5.586047e+001
1612500000 6.891367e-001 5.274817e+001 3.667401e-001 -1.429111e+002 3.654205e-001 -1.433164e+002 6.608520e-001 5.544372e+001
1615000000 6.857092e-001 5.254658e+001 3.662528e-001 -1.432222e+002 3.662514e-001 -1.432336e+002 6.579970e-001 5.520782e+001
1617500000 6.843671e-001 5.243842e+001 3.674259e-001 -1.432332e+002 3.687518e-001 -1.434784e+002 6.591117e-001 5.495846e+001
1620000000 6.809419e-001 5.193708e+001 3.680884e-001 -1.435737e+002 3.698379e-001 -1.438419e+002 6.578072e-001 5.441231e+001
1622500000 6.764517e-001 5.164410e+001 3.687780e-001 -1.437680e+002 3.693752e-001 -1.438995e+002 6.550986e-001 5.413432e+001
1625000000 6.753852e-001 5.119573e+001 3.696989e-001 -1.440213e+002 3.712614e-001 -1.442009e+002 6.534680e-001 5.383486e+001
1627500000 6.726514e-001 5.078151e+001 3.716090e-001 -1.442506e+002 3.718467e-001 -1.444500e+002 6.528897e-001 5.332735e+001
1630000000 6.699803e-001 5.056861e+001 3.703457e-001 -1.445041e+002 3.715346e-001 -1.445457e+002 6.490067e-001 5.306143e+001
1632500000 6.668253e-001 5.033886e+001 3.711818e-001 -1.442660e+002 3.725989e-001 -1.446202e+002 6.474543e-001 5.299720e+001
1635000000 6.646606e-001 4.988798e+001 3.723810e-001 -1.447540e+002 3.729599e-001 -1.448551e+002 6.466305e-001 5.250707e+001
1637500000 6.609910e-001 4.961576e+001 3.742772e-001 -1.450794e+002 3.731761e-001 -1.450414e+002 6.451781e-001 5.210931e+001
1640000000 6.613674e-001 4.910579e+001 3.741346e-001 -1.450063e+002 3.756247e-001 -1.452175e+002 6.429309e-001 5.190765e+001
1642500000 6.562448e-001 4.895766e+001 3.748212e-001 -1.453837e+002 3.754746e-001 -1.453924e+002 6.412339e-001 5.155991e+001
1645000000 6.532776e-001 4.837996e+001 3.758560e-001 -1.454806e+002 3.757167e-001 -1.457218e+002 6.387634e-001 5.115628e+001
1647500000 6.502642e-001 4.814809e+001 3.765637e-001 -1.458490e+002 3.765746e-001 -1.457574e+002 6.368474e-001 5.078711e+001
1650000000 6.488477e-001 4.818182e+001 3.762908e-001 -1.458791e+002 3.782191e-001 -1.459173e+002 6.352820e-001 5.042977e+001
1652500000 6.456255e-001 4.760199e+001 3.788715e-001 -1.460715e+002 3.783740e-001 -1.462038e+002 6.344097e-001 5.024295e+001
1655000000 6.426755e-001 4.733924e+001 3.789713e-001 -1.462219e+002 3.794639e-001 -1.462857e+002 6.312925e-001 4.990714e+001
1657500000 6.397318e-001 4.724158e+001 3.789668e-001 -1.461968e+002 3.796062e-001 -1.464606e+002 6.297691e-001 4.968340e+001
1660000000 6.394516e-001 4.679957e+001 3.812459e-001 -1.465555e+002 3.823612e-001 -1.468926e+002 6.291063e-001 4.926997e+001
1662500000 6.339658e-001 4.634826e+001 3.810707e-001 -1.468191e+002 3.827910e-001 -1.469381e+002 6.275631e-001 4.906212e+001
1665000000 6.308423e-001 4.619884e+001 3.831222e-001 -1.468974e+002 3.834396e-001 -1.471588e+002 6.253361e-001 4.856267e+001
1667500000 6.280614e-001 4.576579e+001 3.832520e-001 -1.471463e+002 3.842213e-001 -1.473771e+002 6.216856e-001 4.823173e+001
1670000000 6.249505e-001 4.556594e+001 3.844716e-001 -1.473056e+002 3.855734e-001 -1.474378e+002 6.211071e-001 4.812432e+001
1672500000 6.230537e-001 4.519795e+001 3.851753e-001 -1.475999e+002 3.859913e-001 -1.477326e+002 6.176108e-001 4.767452e+001
1675000000 6.189553e-001 4.511727e+001 3.864775e-001 -1.475683e+002 3.868082e-001 -1.479296e+002 6.170875e-001 4.743292e+001
1677500000 6.157346e-001 4.483572e+001 3.875948e-001 -1.478222e+002 3.867925e-001 -1.481344e+002 6.138707e-001 4.697358e+001
1680000000 6.129929e-001 4.449125e+001 3.882022e-001 -1.481855e+002 3.874573e-001 -1.484481e+002 6.120967e-001 4.675710e+001
1682500000 6.124884e-001 4.407228e+001 3.887260e-001 -1.484686e+002 3.902332e-001 -1.485791e+002 6.108876e-001 4.641695e+001
1685000000 6.095428e-001 4.399016e+001 3.899068e-001 -1.486579e+002 3.907355e-001 -1.488565e+002 6.091034e-001 4.601521e+001
1687500000 6.059778e-001 4.370816e+001 3.909288e-001 -1.489022e+002 3.918385e-001 -1.490941e+002 6.071509e-001 4.565083e+001
1690000000 6.045212e-001 4.338995e+001 3.915991e-001 -1.493208e+002 3.915188e-001 -1.492623e+002 6.036088e-001 4.536721e+001
1692500000 6.015921e-001 4.316686e+001 3.921540e-001 -1.493876e+002 3.928785e-001 -1.494544e+002 6.032462e-001 4.509813e+001
1695000000 5.963967e-001 4.289074e+001 3.925158e-001 -1.496596e+002 3.934222e-001 -1.498691e+002 5.996560e-001 4.453820e+001
1697500000 5.963693e-001 4.269141e+001 3.941592e-001 -1.498119e+002 3.941331e-001 -1.498602e+002 5.981508e-001 4.439307e+001
1700000000 5.952398e-001 4.219085e+001 3.959210e-001 -1.499105e+002 3.952118e-001 -1.502255e+002 5.957922e-001 4.402853e+001
1702500000 5.929153e-001 4.190898e+001 3.962453e-001 -1.502781e+002 3.969425e-001 -1.505961e+002 5.953652e-001 4.371648e+001
1705000000 5.902829e-001 4.186295e+001 3.971571e-001 -1.503839e+002 3.981686e-001 -1.507033e+002 5.936872e-001 4.343652e+001
1707500000 5.861493e-001 4.167111e+001 3.981855e-001 -1.505810e+002 3.988754e-001 -1.507762e+002 5.918611e-001 4.313091e+001
1710000000 5.849067e-001 4.134414e+001 3.981842e-001 -1.510373e+002 3.997810e-001 -1.511730e+002 5.877841e-001 4.266550e+001
1712500000 5.831466e-001 4.110673e+001 4.004126e-001 -1.509744e+002 3.988439e-001 -1.512883e+002 5.859891e-001 4.254661e+001
1715000000 5.774013e-001 4.103768e+001 3.987530e-001 -1.513062e+002 4.010881e-001 -1.514362e+002 5.833316e-001 4.213464e+001
1717500000 5.773041e-001 4.040906e+001 4.019711e-001 -1.515622e+002 4.012811e-001 -1.517263e+002 5.818954e-001 4.184428e+001
1720000000 5.746149e-001 4.014104e+001 3.993903e-001 -1.519081e+002 4.029277e-001 -1.520062e+002 5.794457e-001 4.148529e+001
1722500000 5.744398e-001 3.987185e+001 4.020424e-001 -1.520521e+002 4.048199e-001 -1.524240e+002 5.776451e-001 4.101273e+001
1725000000 5.711689e-001 3.991016e+001 4.021659e-001 -1.522255e+002 4.047532e-001 -1.524549e+002 5.754068e-001 4.077540e+001
1727500000 5.669011e-001 3.962156e+001 4.038193e-001 -1.525481e+002 4.047763e-001 -1.525815e+002 5.738329e-001 4.048285e+001
1730000000 5.667622e-001 3.917921e+001 4.062963e-001 -1.527129e+002 4.061063e-001 -1.528751e+002 5.714919e-001 4.018994e+001
1732500000 5.641455e-001 3.910048e+001 4.051629e-001 -1.530129e+002 4.064037e-001 -1.530670e+002 5.685111e-001 3.973274e+001
1735000000 5.598081e-001 3.884490e+001 4.072780e-001 -1.530228e+002 4.063561e-001 -1.532083e+002 5.675641e-001 3.969789e+001
1737500000 5.600860e-001 3.873518e+001 4.068674e-001 -1.533365e+002 4.085453e-001 -1.535432e+002 5.636490e-001 3.928969e+001
1740000000 5.560877e-001 3.828767e+001 4.076800e-001 -1.536449e+002 4.082684e-001 -1.534589e+002 5.614281e-001 3.910360e+001
1742500000 5.545588e-001 3.821942e+001 4.079882e-001 -1.537500e+002 4.080626e-001 -1.539612e+002 5.574435e-001 3.858579e+001
1745000000 5.543049e-001 3.772265e+001 4.093502e-001 -1.540388e+002 4.103878e-001 -1.542386e+002 5.566765e-001 3.828799e+001
1747500000 5.530118e-001 3.773040e+001 4.114068e-001 -1.542227e+002 4.111552e-001 -1.543225e+002 5.538541e-001 3.804054e+001
1750000000 5.492454e-001 3.753449e+001 4.112816e-001 -1.543300e+002 4.141392e-001 -1.545734e+002 5.535451e-001 3.773503e+001
1752500000 5.485913e-001 3.706204e+001 4.120360e-001 -1.545824e+002 4.154622e-001 -1.546688e+002 5.504818e-001 3.745509e+001
1755000000 5.473706e-001 3.689143e+001 4.129109e-001 -1.548708e+002 4.148296e-001 -1.549242e+002 5.486432e-001 3.718085e+001
1757500000 5.449715e-001 3.646028e+001 4.137126e-001 -1.550285e+002 4.147871e-001 -1.551355e+002 5.450104e-001 3.689904e+001
1760000000 5.442101e-001 3.624768e+001 4.150389e-001 -1.552635e+002 4.160853e-001 -1.554411e+002 5.428063e-001 3.653426e+001
1762500000 5.419571e-001 3.606795e+001 4.162370e-001 -1.555195e+002 4.174354e-001 -1.556891e+002 5.403250e-001 3.616517e+001
1765000000 5.407702e-001 3.576247e+001 4.162105e-001 -1.555329e+002 4.177972e-001 -1.557010e+002 5.369505e-001 3.598036e+001
1767500000 5.400804e-001 3.552983e+001 4.179591e-001 -1.559237e+002 4.195528e-001 -1.559496e+002 5.357864e-001 3.547146e+001
1770000000 5.369030e-001 3.522087e+001 4.204495e-001 -1.561175e+002 4.195319e-001 -1.559624e+002 5.322154e-001 3.537767e+001
1772500000 5.355269e-001 3.496807e+001 4.208642e-001 -1.562472e+002 4.226198e-001 -1.563065e+002 5.311897e-001 3.494166e+001
1775000000 5.336779e-001 3.447622e+001 4.215151e-001 -1.564062e+002 4.222137e-001 -1.565854e+002 5.263425e-001 3.479879e+001
1777500000 5.308092e-001 3.422535e+001 4.225124e-001 -1.566163e+002 4.240561e-001 -1.568653e+002 5.243683e-001 3.451451e+001
1780000000 5.310532e-001 3.398307e+001 4.244839e-001 -1.566953e+002 4.261649e-001 -1.569758e+002 5.232982e-001 3.438870e+001
1782500000 5.282839e-001 3.364436e+001 4.262279e-001 -1.570963e+002 4.255182e-001 -1.572410e+002 5.199006e-001 3.406801e+001
1785000000 5.260555e-001 3.334082e+001 4.273305e-001 -1.572568e+002 4.269878e-001 -1.576048e+002 5.169564e-001 3.378101e+001
1787500000 5.240962e-001 3.313871e+001 4.268524e-001 -1.574715e+002 4.292730e-001 -1.576233e+002 5.152257e-001 3.363139e+001
1790000000 5.222853e-001 3.254733e+001 4.290069e-001 -1.579419e+002 4.300216e-001 -1.579462e+002 5.120866e-001 3.336874e+001
1792500000 5.195106e-001 3.237119e+001 4.300203e-001 -1.580614e+002 4.312420e-001 -1.581142e+002 5.104780e-001 3.307244e+001
1795000000 5.191593e-001 3.188248e+001 4.310877e-001 -1.584894e+002 4.330363e-001 -1.583654e+002 5.075853e-001 3.297124e+001
1797500000 5.155077e-001 3.161005e+001 4.326525e-001 -1.584953e+002 4.328710e-001 -1.587376e+002 5.051980e-001 3.286421e+001
1800000000 5.162366e-001 3.146675e+001 4.339069e-001 -1.587269e+002 4.341187e-001 -1.589385e+002 5.024720e-001 3.253836e+001
1802500000 5.140983e-001 3.100644e+001 4.352580e-001 -1.589125e+002 4.373369e-001 -1.593724e+002 5.020781e-001 3.219957e+001
1805000000 5.117202e-001 3.034040e+001 4.376928e-001 -1.595256e+002 4.359581e-001 -1.596165e+002 4.985438e-001 3.191371e+001
1807500000 5.080191e-001 3.018461e+001 4.370744e-001 -1.595951e+002 4.392104e-001 -1.597481e+002 4.980356e-001 3.189915e+001
1810000000 5.069565e-001 2.981434e+001 4.381756e-001 -1.599852e+002 4.388470e-001 -1.601724e+002 4.943718e-001 3.146943e+001
1812500000 5.051106e-001 2.931482e+001 4.395915e-001 -1.603327e+002 4.399672e-001 -1.603169e+002 4.924664e-001 3.150883e+001
1815000000 5.021875e-001 2.899435e+001 4.394095e-001 -1.604754e+002 4.410971e-001 -1.605524e+002 4.903895e-001 3.130569e+001
1817500000 4.992055e-001 2.858402e+001 4.410153e-001 -1.607345e+002 4.413825e-001 -1.607420e+002 4.900655e-001 3.119504e+001
1820000000 4.961497e-001 2.828350e+001 4.412762e-001 -1.610288e+002 4.412954e-001 -1.609667e+002 4.873098e-001 3.095755e+001
1822500000 4.946238e-001 2.810267e+001 4.421394e-001 -1.609416e+002 4.442352e-001 -1.612964e+002 4.868288e-001 3.057735e+001
1825000000 4.919472e-001 2.771501e+001 4.418966e-001 -1.612766e+002 4.440396e-001 -1.615702e+002 4.835877e-001 3.018801e+001
1827500000 4.915933e-001 2.705962e+001 4.462582e-001 -1.617760e+002 4.462600e-001 -1.618352e+002 4.827772e-001 3.019178e+001
1830000000 4.885704e-001 2.695963e+001 4.473130e-001 -1.618060e+002 4.459893e-001 -1.619316e+002 4.819159e-001 2.999899e+001
1832500000 4.852393e-001 2.644811e+001 4.475210e-001 -1.623690e+002 4.468070e-001 -1.621622e+002 4.801469e-001 2.974981e+001
1835000000 4.840656e-001 2.636998e+001 4.476976e-001 -1.622778e+002 4.478450e-001 -1.623312e+002 4.776488e-001 2.956907e+001
1837500000 4.808809e-001 2.592661e+001 4.487801e-001 -1.624968e+002 4.495596e-001 -1.625595e+002 4.766908e-001 2.934947e+001
