!Agilent Technologies,E8363B,MY43030801,A.06.04.21
!Agilent E8363B: A.06.04.21
!Date: Friday, October 24, 2025 08:32:21
!Correction: S11(Full 2 Port(1,2)) S21(Full 2 Port(1,2)) S12(Full 2 Port(1,2)) S22(Full 2 Port(1,2)) 
!S2P File: Measurements: S11, S21, S12, S22:
# Hz S  MA   R 50
1450000000 9.342673e-001 9.054346e+001 5.548362e-001 -1.695091e+002 5.556087e-001 -1.698115e+002 7.677462e-001 6.936575e+001
1452500000 9.382081e-001 8.906126e+001 5.633655e-001 -1.704466e+002 5.632978e-001 -1.706082e+002 7.642802e-001 6.883486e+001
1455000000 9.403923e-001 8.735934e+001 5.663751e-001 -1.714217e+002 5.683066e-001 -1.715077e+002 7.576720e-001 6.862344e+001
1457500000 9.400919e-001 8.601929e+001 5.724621e-001 -1.722744e+002 5.737900e-001 -1.725277e+002 7.532083e-001 6.833173e+001
1460000000 9.386518e-001 8.446450e+001 5.773644e-001 -1.732847e+002 5.774853e-001 -1.734125e+002 7.475042e-001 6.798736e+001
1462500000 9.319581e-001 8.328539e+001 5.799816e-001 -1.742679e+002 5.814396e-001 -1.742500e+002 7.453954e-001 6.783317e+001
1465000000 9.305236e-001 8.211342e+001 5.836978e-001 -1.748042e+002 5.838675e-001 -1.751257e+002 7.416309e-001 6.758377e+001
1467500000 9.247554e-001 8.084850e+001 5.856710e-001 -1.757825e+002 5.865737e-001 -1.761378e+002 7.374621e-001 6.735537e+001
1470000000 9.203246e-001 7.973467e+001 5.876265e-001 -1.769442e+002 5.879502e-001 -1.769767e+002 7.317954e-001 6.711222e+001
1472500000 9.156460e-001 7.863241e+001 5.893512e-001 -1.776437e+002 5.895962e-001 -1.776945e+002 7.309945e-001 6.683198e+001
1475000000 9.093822e-001 7.763065e+001 5.887514e-001 -1.783302e+002 5.890707e-001 -1.785138e+002 7.249289e-001 6.668526e+001
1477500000 9.002571e-001 7.691663e+001 5.885477e-001 -1.790594e+002 5.906031e-001 -1.791724e+002 7.229358e-001 6.643380e+001
1480000000 8.944773e-001 7.592992e+001 5.893543e-001 -1.799749e+002 5.921553e-001 1.799669e+002 7.195070e-001 6.623524e+001
1482500000 8.910636e-001 7.506281e+001 5.913664e-001 1.794534e+002 5.904742e-001 1.793209e+002 7.163496e-001 6.604523e+001
1485000000 8.844139e-001 7.415531e+001 5.926166e-001 1.788736e+002 5.946075e-001 1.788452e+002 7.166778e-001 6.589258e+001
1487500000 8.785322e-001 7.353265e+001 5.928085e-001 1.781640e+002 5.943678e-001 1.778537e+002 7.126006e-001 6.545020e+001
1490000000 8.707470e-001 7.276836e+001 5.924950e-001 1.773390e+002 5.931903e-001 1.772480e+002 7.123376e-001 6.526764e+001
1492500000 8.631436e-001 7.217161e+001 5.907897e-001 1.768643e+002 5.919296e-001 1.766380e+002 7.091045e-001 6.508916e+001
1495000000 8.600052e-001 7.149619e+001 5.933305e-001 1.763280e+002 5.940835e-001 1.760580e+002 7.086931e-001 6.472697e+001
1497500000 8.526812e-001 7.075332e+001 5.929695e-001 1.755580e+002 5.939646e-001 1.755380e+002 7.077367e-001 6.457082e+001
1500000000 8.465475e-001 7.006637e+001 5.931360e-001 1.750535e+002 5.936255e-001 1.749774e+002 7.040915e-001 6.442789e+001
1502500000 8.413641e-001 6.964757e+001 5.929580e-001 1.746029e+002 5.947139e-001 1.742926e+002 7.017755e-001 6.392361e+001
1505000000 8.341557e-001 6.885918e+001 5.924188e-001 1.738559e+002 5.938110e-001 1.738001e+002 7.006698e-001 6.379501e+001
1507500000 8.298326e-001 6.863280e+001 5.911909e-001 1.733280e+002 5.947165e-001 1.732189e+002 6.979226e-001 6.353256e+001
1510000000 8.239449e-001 6.801131e+001 5.937242e-001 1.728342e+002 5.932454e-001 1.728633e+002 6.974256e-001 6.342318e+001
1512500000 8.190652e-001 6.753962e+001 5.928081e-001 1.725046e+002 5.937612e-001 1.720784e+002 6.957213e-001 6.309732e+001
1515000000 8.164156e-001 6.725223e+001 5.940369e-001 1.719949e+002 5.932000e-001 1.715146e+002 6.947996e-001 6.255595e+001
1517500000 8.098150e-001 6.661120e+001 5.904623e-001 1.713648e+002 5.934986e-001 1.713135e+002 6.906805e-001 6.245296e+001
1520000000 8.046871e-001 6.599834e+001 5.911313e-001 1.707751e+002 5.924973e-001 1.707338e+002 6.896867e-001 6.233350e+001
1522500000 7.994975e-001 6.564620e+001 5.913752e-001 1.704349e+002 5.944568e-001 1.701231e+002 6.892487e-001 6.200449e+001
1525000000 7.949123e-001 6.508743e+001 5.913702e-001 1.698763e+002 5.932647e-001 1.695818e+002 6.869065e-001 6.173008e+001
1527500000 7.912844e-001 6.478777e+001 5.915260e-001 1.694056e+002 5.927997e-001 1.692330e+002 6.857216e-001 6.143961e+001
1530000000 7.871118e-001 6.425146e+001 5.924154e-001 1.687868e+002 5.945579e-001 1.687694e+002 6.852366e-001 6.112407e+001
1532500000 7.836987e-001 6.397136e+001 5.929083e-001 1.684639e+002 5.928174e-001 1.683491e+002 6.815810e-001 6.087199e+001
1535000000 7.779775e-001 6.352383e+001 5.908332e-001 1.679128e+002 5.915071e-001 1.678926e+002 6.777854e-001 6.069073e+001
1537500000 7.741721e-001 6.313728e+001 5.931685e-001 1.674377e+002 5.934123e-001 1.674826e+002 6.803885e-001 6.015108e+001
1540000000 7.694470e-001 6.288231e+001 5.913950e-001 1.670175e+002 5.936256e-001 1.670784e+002 6.765477e-001 6.008457e+001
1542500000 7.657163e-001 6.242269e+001 5.927423e-001 1.665341e+002 5.941650e-001 1.664978e+002 6.753559e-001 5.966468e+001
1545000000 7.589732e-001 6.202310e+001 5.912971e-001 1.660787e+002 5.947522e-001 1.660231e+002 6.755160e-001 5.936902e+001
1547500000 7.586454e-001 6.139321e+001 5.927998e-001 1.655591e+002 5.933581e-001 1.654440e+002 6.718758e-001 5.908216e+001
1550000000 7.551103e-001 6.128251e+001 5.926934e-001 1.652883e+002 5.938275e-001 1.650835e+002 6.701328e-001 5.879904e+001
1552500000 7.498558e-001 6.083775e+001 5.933740e-001 1.647318e+002 5.934386e-001 1.646311e+002 6.705564e-001 5.853472e+001
1555000000 7.463984e-001 6.074628e+001 5.919296e-001 1.643973e+002 5.940286e-001 1.642757e+002 6.682876e-001 5.823794e+001
1557500000 7.429926e-001 6.028589e+001 5.915506e-001 1.640476e+002 5.931327e-001 1.637422e+002 6.636258e-001 5.795856e+001
1560000000 7.425082e-001 5.983986e+001 5.936754e-001 1.635231e+002 5.934442e-001 1.632131e+002 6.628542e-001 5.763058e+001
1562500000 7.344632e-001 5.970938e+001 5.921461e-001 1.631777e+002 5.940383e-001 1.630021e+002 6.625588e-001 5.743404e+001
1565000000 7.313919e-001 5.913910e+001 5.914356e-001 1.626663e+002 5.928387e-001 1.623587e+002 6.623200e-001 5.702987e+001
1567500000 7.285298e-001 5.903886e+001 5.918659e-001 1.622662e+002 5.912703e-001 1.623833e+002 6.581336e-001 5.703151e+001
1570000000 7.273411e-001 5.862576e+001 5.914657e-001 1.619534e+002 5.927427e-001 1.617448e+002 6.556461e-001 5.671616e+001
1572500000 7.253610e-001 5.823824e+001 5.930677e-001 1.613878e+002 5.945303e-001 1.613265e+002 6.576383e-001 5.641725e+001
1575000000 7.200895e-001 5.808615e+001 5.921643e-001 1.611490e+002 5.917063e-001 1.608492e+002 6.539406e-001 5.597505e+001
1577500000 7.184558e-001 5.766167e+001 5.924608e-001 1.606938e+002 5.921265e-001 1.605182e+002 6.526539e-001 5.558624e+001
1580000000 7.170209e-001 5.739545e+001 5.917624e-001 1.603092e+002 5.947927e-001 1.602474e+002 6.514181e-001 5.550482e+001
1582500000 7.157642e-001 5.704114e+001 5.937051e-001 1.600775e+002 5.944280e-001 1.598653e+002 6.503096e-001 5.538512e+001
1585000000 7.110218e-001 5.653677e+001 5.926214e-001 1.593692e+002 5.937690e-001 1.593662e+002 6.483650e-001 5.498582e+001
1587500000 7.073402e-001 5.656417e+001 5.923034e-001 1.591320e+002 5.926697e-001 1.591284e+002 6.479605e-001 5.477176e+001
1590000000 7.058162e-001 5.633538e+001 5.927821e-001 1.588344e+002 5.964730e-001 1.586934e+002 6.484274e-001 5.431316e+001
1592500000 7.011168e-001 5.591541e+001 5.913544e-001 1.585560e+002 5.957114e-001 1.583802e+002 6.461371e-001 5.415805e+001
1595000000 7.017580e-001 5.555621e+001 5.961302e-001 1.580642e+002 5.961260e-001 1.578997e+002 6.457927e-001 5.363360e+001
1597500000 6.978212e-001 5.518566e+001 5.947199e-001 1.576607e+002 5.969911e-001 1.575672e+002 6.455751e-001 5.346880e+001
1600000000 6.961249e-001 5.470926e+001 5.976622e-001 1.572713e+002 5.970837e-001 1.572355e+002 6.433569e-001 5.325706e+001
1602500000 6.931006e-001 5.444954e+001 5.960665e-001 1.570092e+002 5.982251e-001 1.567824e+002 6.427023e-001 5.283993e+001
1605000000 6.901206e-001 5.404840e+001 5.956402e-001 1.565705e+002 5.981665e-001 1.562289e+002 6.393278e-001 5.231794e+001
1607500000 6.894256e-001 5.393819e+001 5.978469e-001 1.562163e+002 5.980613e-001 1.560413e+002 6.365365e-001 5.221552e+001
1610000000 6.869515e-001 5.347864e+001 5.986687e-001 1.558213e+002 5.981806e-001 1.556124e+002 6.370519e-001 5.178002e+001
1612500000 6.820296e-001 5.303546e+001 5.996261e-001 1.553861e+002 5.992349e-001 1.550161e+002 6.353881e-001 5.143766e+001
1615000000 6.812780e-001 5.271458e+001 5.993831e-001 1.548364e+002 6.000164e-001 1.547232e+002 6.331646e-001 5.112033e+001
1617500000 6.777697e-001 5.235997e+001 6.008425e-001 1.546485e+002 6.002986e-001 1.544101e+002 6.312634e-001 5.084628e+001
1620000000 6.790485e-001 5.230009e+001 6.013419e-001 1.541557e+002 6.028035e-001 1.538299e+002 6.311622e-001 5.031006e+001
1622500000 6.711783e-001 5.178754e+001 6.011022e-001 1.537345e+002 6.019958e-001 1.536176e+002 6.290492e-001 5.027075e+001
1625000000 6.699272e-001 5.132749e+001 6.020427e-001 1.532577e+002 6.044964e-001 1.530928e+002 6.269087e-001 4.985228e+001
1627500000 6.672843e-001 5.098040e+001 6.029881e-001 1.526516e+002 6.038655e-001 1.525762e+002 6.254234e-001 4.933418e+001
1630000000 6.625059e-001 5.063688e+001 6.004694e-001 1.520912e+002 6.041496e-001 1.523026e+002 6.248546e-001 4.916276e+001
1632500000 6.633141e-001 5.033184e+001 6.020635e-001 1.520932e+002 6.059750e-001 1.520591e+002 6.213946e-001 4.895057e+001
1635000000 6.608038e-001 5.003217e+001 6.046639e-001 1.515288e+002 6.060853e-001 1.513684e+002 6.210420e-001 4.860010e+001
1637500000 6.567932e-001 4.987780e+001 6.059570e-001 1.510484e+002 6.021680e-001 1.509677e+002 6.178423e-001 4.806840e+001
1640000000 6.549079e-001 4.952928e+001 6.049234e-001 1.508119e+002 6.061071e-001 1.506592e+002 6.153737e-001 4.792343e+001
1642500000 6.530815e-001 4.905927e+001 6.055808e-001 1.501498e+002 6.061952e-001 1.501560e+002 6.154242e-001 4.752562e+001
1645000000 6.503114e-001 4.868863e+001 6.059738e-001 1.499266e+002 6.064852e-001 1.496607e+002 6.131814e-001 4.723927e+001
1647500000 6.475917e-001 4.850659e+001 6.069149e-001 1.494281e+002 6.061747e-001 1.494166e+002 6.104625e-001 4.687564e+001
1650000000 6.442517e-001 4.832753e+001 6.063822e-001 1.490912e+002 6.087151e-001 1.490110e+002 6.104656e-001 4.655402e+001
1652500000 6.412031e-001 4.791142e+001 6.076600e-001 1.486794e+002 6.082573e-001 1.485488e+002 6.084407e-001 4.634349e+001
1655000000 6.384059e-001 4.771326e+001 6.051528e-001 1.482946e+002 6.073834e-001 1.481738e+002 6.057208e-001 4.590048e+001
1657500000 6.366742e-001 4.747222e+001 6.075236e-001 1.479794e+002 6.062374e-001 1.478091e+002 6.043877e-001 4.576036e+001
1660000000 6.330302e-001 4.728796e+001 6.082372e-001 1.475518e+002 6.089504e-001 1.471835e+002 6.032130e-001 4.531250e+001
1662500000 6.321859e-001 4.684481e+001 6.080263e-001 1.472568e+002 6.097768e-001 1.469773e+002 6.029763e-001 4.516442e+001
1665000000 6.272060e-001 4.637096e+001 6.092330e-001 1.467039e+002 6.096849e-001 1.465549e+002 6.000761e-001 4.477268e+001
1667500000 6.259325e-001 4.596968e+001 6.088195e-001 1.462359e+002 6.099092e-001 1.460140e+002 5.977650e-001 4.445768e+001
1670000000 6.230609e-001 4.561393e+001 6.099972e-001 1.458974e+002 6.111928e-001 1.458712e+002 5.968627e-001 4.425112e+001
1672500000 6.217535e-001 4.556740e+001 6.085236e-001 1.454298e+002 6.117264e-001 1.453885e+002 5.957490e-001 4.388982e+001
1675000000 6.183416e-001 4.530751e+001 6.099836e-001 1.452493e+002 6.106132e-001 1.449848e+002 5.934920e-001 4.348610e+001
1677500000 6.150393e-001 4.506400e+001 6.104336e-001 1.448392e+002 6.090006e-001 1.446821e+002 5.905856e-001 4.312258e+001
1680000000 6.110649e-001 4.468782e+001 6.103802e-001 1.443435e+002 6.088747e-001 1.441455e+002 5.890893e-001 4.294566e+001
1682500000 6.082559e-001 4.422856e+001 6.108468e-001 1.438447e+002 6.129687e-001 1.436990e+002 5.884937e-001 4.251471e+001
1685000000 6.077467e-001 4.427012e+001 6.107557e-001 1.434615e+002 6.120142e-001 1.433129e+002 5.844002e-001 4.221151e+001
1687500000 6.035383e-001 4.376790e+001 6.118527e-001 1.429167e+002 6.120173e-001 1.428989e+002 5.836248e-001 4.194239e+001
1690000000 6.015117e-001 4.366517e+001 6.113117e-001 1.426010e+002 6.116847e-001 1.425894e+002 5.819658e-001 4.162113e+001
1692500000 5.998098e-001 4.304969e+001 6.108246e-001 1.422489e+002 6.135939e-001 1.422757e+002 5.808794e-001 4.131481e+001
1695000000 5.956687e-001 4.277904e+001 6.103706e-001 1.416988e+002 6.118152e-001 1.415917e+002 5.789416e-001 4.078855e+001
1697500000 5.923801e-001 4.265782e+001 6.125965e-001 1.414914e+002 6.114913e-001 1.414496e+002 5.771853e-001 4.058987e+001
1700000000 5.924452e-001 4.243053e+001 6.137263e-001 1.412101e+002 6.148606e-001 1.409265e+002 5.748463e-001 4.021868e+001
1702500000 5.877236e-001 4.189473e+001 6.134227e-001 1.406920e+002 6.145158e-001 1.403569e+002 5.731562e-001 3.995274e+001
1705000000 5.876327e-001 4.185372e+001 6.152898e-001 1.404279e+002 6.150656e-001 1.400238e+002 5.728679e-001 3.949723e+001
1707500000 5.822203e-001 4.153605e+001 6.138914e-001 1.400323e+002 6.165197e-001 1.397612e+002 5.707858e-001 3.930993e+001
1710000000 5.844849e-001 4.124771e+001 6.139081e-001 1.393870e+002 6.145916e-001 1.392359e+002 5.672078e-001 3.876973e+001
1712500000 5.800765e-001 4.091542e+001 6.150427e-001 1.390767e+002 6.136842e-001 1.389419e+002 5.663317e-001 3.871186e+001
1715000000 5.770170e-001 4.079252e+001 6.133394e-001 1.387207e+002 6.159812e-001 1.386837e+002 5.634986e-001 3.832035e+001
1717500000 5.737786e-001 4.031649e+001 6.165109e-001 1.382758e+002 6.149098e-001 1.381721e+002 5.612637e-001 3.797322e+001
1720000000 5.714729e-001 3.984561e+001 6.132771e-001 1.378983e+002 6.157363e-001 1.377636e+002 5.607355e-001 3.768866e+001
1722500000 5.702412e-001 3.982565e+001 6.144840e-001 1.374357e+002 6.179622e-001 1.372023e+002 5.570571e-001 3.719524e+001
1725000000 5.670339e-001 3.965606e+001 6.142295e-001 1.370607e+002 6.177500e-001 1.369706e+002 5.565389e-001 3.693047e+001
1727500000 5.627858e-001 3.956136e+001 6.159419e-001 1.366346e+002 6.177583e-001 1.365418e+002 5.573221e-001 3.648743e+001
1730000000 5.617368e-001 3.910460e+001 6.188113e-001 1.361967e+002 6.170478e-001 1.361998e+002 5.524381e-001 3.643727e+001
1732500000 5.604452e-001 3.885605e+001 6.155596e-001 1.357462e+002 6.171417e-001 1.357942e+002 5.516949e-001 3.594952e+001
1735000000 5.559438e-001 3.844738e+001 6.175670e-001 1.356418e+002 6.170276e-001 1.353834e+002 5.521004e-001 3.563959e+001
1737500000 5.536373e-001 3.850138e+001 6.157411e-001 1.353322e+002 6.197715e-001 1.350839e+002 5.486056e-001 3.534357e+001
1740000000 5.521404e-001 3.849955e+001 6.175970e-001 1.348621e+002 6.178832e-001 1.348646e+002 5.467561e-001 3.490054e+001
1742500000 5.497448e-001 3.772667e+001 6.161175e-001 1.344394e+002 6.182820e-001 1.343942e+002 5.452024e-001 3.480103e+001
1745000000 5.480556e-001 3.768975e+001 6.164786e-001 1.338888e+002 6.181034e-001 1.336824e+002 5.418897e-001 3.423006e+001
1747500000 5.439708e-001 3.732416e+001 6.171708e-001 1.336341e+002 6.185890e-001 1.334892e+002 5.408421e-001 3.397690e+001
1750000000 5.438148e-001 3.729735e+001 6.191899e-001 1.332225e+002 6.200724e-001 1.329871e+002 5.401291e-001 3.365965e+001
1752500000 5.422020e-001 3.681487e+001 6.180896e-001 1.329588e+002 6.208237e-001 1.328823e+002 5.359389e-001 3.336510e+001
1755000000 5.395623e-001 3.661966e+001 6.177365e-001 1.325803e+002 6.214260e-001 1.322195e+002 5.356790e-001 3.275906e+001
1757500000 5.402462e-001 3.619215e+001 6.189729e-001 1.321227e+002 6.181867e-001 1.319211e+002 5.335716e-001 3.263598e+001
1760000000 5.375218e-001 3.604301e+001 6.185253e-001 1.316682e+002 6.191590e-001 1.314192e+002 5.317565e-001 3.228060e+001
1762500000 5.347694e-001 3.556178e+001 6.201164e-001 1.313679e+002 6.213921e-001 1.311374e+002 5.296362e-001 3.196198e+001
1765000000 5.334663e-001 3.534950e+001 6.180322e-001 1.309935e+002 6.216343e-001 1.307936e+002 5.268294e-001 3.155656e+001
1767500000 5.320761e-001 3.528057e+001 6.216605e-001 1.304761e+002 6.214353e-001 1.304476e+002 5.261626e-001 3.114374e+001
1770000000 5.283875e-001 3.520037e+001 6.211630e-001 1.301768e+002 6.207464e-001 1.303660e+002 5.239910e-001 3.104230e+001
1772500000 5.272592e-001 3.469832e+001 6.200163e-001 1.297646e+002 6.236719e-001 1.298831e+002 5.242253e-001 3.059435e+001
1775000000 5.255555e-001 3.430545e+001 6.187281e-001 1.294931e+002 6.223669e-001 1.293562e+002 5.204410e-001 3.013029e+001
1777500000 5.247152e-001 3.407503e+001 6.204773e-001 1.292552e+002 6.235954e-001 1.290295e+002 5.180531e-001 2.982234e+001
1780000000 5.226713e-001 3.362322e+001 6.232675e-001 1.289604e+002 6.239483e-001 1.286884e+002 5.177362e-001 2.942220e+001
1782500000 5.201617e-001 3.336460e+001 6.234277e-001 1.284822e+002 6.221280e-001 1.281732e+002 5.143479e-001 2.907980e+001
1785000000 5.187503e-001 3.315350e+001 6.242325e-001 1.281395e+002 6.236067e-001 1.278010e+002 5.127912e-001 2.885523e+001
1787500000 5.153099e-001 3.287295e+001 6.212779e-001 1.277597e+002 6.241571e-001 1.276472e+002 5.104977e-001 2.851482e+001
1790000000 5.144352e-001 3.240785e+001 6.248866e-001 1.271456e+002 6.247721e-001 1.270806e+002 5.092907e-001 2.815977e+001
1792500000 5.144817e-001 3.199345e+001 6.258379e-001 1.269122e+002 6.246009e-001 1.268237e+002 5.086311e-001 2.778742e+001
1795000000 5.108829e-001 3.179276e+001 6.243108e-001 1.265508e+002 6.262206e-001 1.266051e+002 5.057479e-001 2.730631e+001
1797500000 5.070581e-001 3.135380e+001 6.248912e-001 1.261682e+002 6.252538e-001 1.260986e+002 5.044117e-001 2.706238e+001
1800000000 5.069253e-001 3.111444e+001 6.256411e-001 1.258908e+002 6.289814e-001 1.255922e+002 5.013903e-001 2.643928e+001
1802500000 5.056256e-001 3.063999e+001 6.274515e-001 1.254614e+002 6.298450e-001 1.251770e+002 4.987959e-001 2.643120e+001
1805000000 5.022195e-001 3.020967e+001 6.285213e-001 1.248210e+002 6.269985e-001 1.248954e+002 4.978315e-001 2.599488e+001
1807500000 4.995308e-001 3.014021e+001 6.288614e-001 1.247575e+002 6.304174e-001 1.245107e+002 4.949139e-001 2.550422e+001
1810000000 4.984646e-001 2.988283e+001 6.296046e-001 1.242250e+002 6.307892e-001 1.240319e+002 4.935550e-001 2.522087e+001
1812500000 4.951563e-001 2.923431e+001 6.294100e-001 1.236217e+002 6.304048e-001 1.236687e+002 4.900000e-001 2.483097e+001
1815000000 4.939917e-001 2.886509e+001 6.300951e-001 1.233914e+002 6.337888e-001 1.235202e+002 4.868219e-001 2.449587e+001
1817500000 4.907687e-001 2.855701e+001 6.310365e-001 1.229887e+002 6.331918e-001 1.227844e+002 4.873610e-001 2.399643e+001
1820000000 4.890130e-001 2.818987e+001 6.316340e-001 1.225398e+002 6.328835e-001 1.224137e+002 4.844426e-001 2.368925e+001
1822500000 4.862601e-001 2.789355e+001 6.323148e-001 1.222451e+002 6.336712e-001 1.220464e+002 4.824107e-001 2.321285e+001
1825000000 4.835983e-001 2.782022e+001 6.311260e-001 1.219410e+002 6.350517e-001 1.216874e+002 4.800227e-001 2.270531e+001
1827500000 4.830885e-001 2.704429e+001 6.350987e-001 1.214457e+002 6.345163e-001 1.212475e+002 4.756960e-001 2.254546e+001
1830000000 4.808292e-001 2.687594e+001 6.346737e-001 1.211345e+002 6.326634e-001 1.209692e+002 4.750226e-001 2.200388e+001
1832500000 4.769062e-001 2.659860e+001 6.346046e-001 1.206685e+002 6.328755e-001 1.206391e+002 4.710492e-001 2.170289e+001
1835000000 4.751401e-001 2.622231e+001 6.354951e-001 1.203737e+002 6.362067e-001 1.201350e+002 4.697617e-001 2.145347e+001
1837500000 4.730750e-001 2.579713e+001 6.346081e-001 1.199779e+002 6.362787e-001 1.197007e+002 4.661402e-001 2.112882e+001
1840000000 4.712422e-001 2.542826e+001 6.368768e-001 1.194488e+002 6.389440e-001 1.195222e+002 4.639381e-001 2.084983e+001
1842500000 4.694277e-001 2.508982e+001 6.370318e-001 1.191062e+002 6.383724e-001 1.189927e+002 4.629188e-001 2.048841e+001
