!Agilent Technologies,E8363B,MY43030801,A.06.04.21
!Agilent E8363B: A.06.04.21
!Date: Friday, October 24, 2025 08:33:00
!Correction: S11(Full 2 Port(1,2)) S21(Full 2 Port(1,2)) S12(Full 2 Port(1,2)) S22(Full 2 Port(1,2)) 
!S2P File: Measurements: S11, S21, S12, S22:
# Hz S  MA   R 50
1450000000 9.406278e-001 9.139019e+001 3.798239e-001 -1.533307e+002 3.797649e-001 -1.536586e+002 7.677076e-001 7.522565e+001
1452500000 9.425488e-001 8.983054e+001 3.851106e-001 -1.543909e+002 3.857285e-001 -1.544333e+002 7.671561e-001 7.474794e+001
1455000000 9.444393e-001 8.842382e+001 3.862523e-001 -1.552931e+002 3.875569e-001 -1.552894e+002 7.623788e-001 7.442310e+001
1457500000 9.438609e-001 8.671542e+001 3.896937e-001 -1.562463e+002 3.914133e-001 -1.563709e+002 7.619359e-001 7.396770e+001
1460000000 9.419453e-001 8.545483e+001 3.922175e-001 -1.570263e+002 3.930618e-001 -1.571685e+002 7.576769e-001 7.367877e+001
1462500000 9.397947e-001 8.420213e+001 3.949223e-001 -1.579259e+002 3.947555e-001 -1.580784e+002 7.561941e-001 7.331921e+001
1465000000 9.386696e-001 8.305810e+001 3.961982e-001 -1.586803e+002 3.967896e-001 -1.588161e+002 7.539372e-001 7.297090e+001
1467500000 9.325832e-001 8.187107e+001 3.962537e-001 -1.593753e+002 3.966010e-001 -1.598648e+002 7.497399e-001 7.259830e+001
1470000000 9.282407e-001 8.067564e+001 3.977716e-001 -1.605914e+002 3.973907e-001 -1.606700e+002 7.452979e-001 7.221111e+001
1472500000 9.221924e-001 7.968660e+001 3.978426e-001 -1.612136e+002 3.974535e-001 -1.614432e+002 7.450176e-001 7.191234e+001
1475000000 9.124160e-001 7.868715e+001 3.956443e-001 -1.619174e+002 3.973084e-001 -1.620899e+002 7.416306e-001 7.169856e+001
1477500000 9.085230e-001 7.776521e+001 3.968002e-001 -1.627253e+002 3.969959e-001 -1.627177e+002 7.388647e-001 7.135568e+001
1480000000 9.011348e-001 7.696623e+001 3.965128e-001 -1.636499e+002 3.989082e-001 -1.638283e+002 7.375774e-001 7.073087e+001
1482500000 8.945494e-001 7.589207e+001 3.959726e-001 -1.642599e+002 3.972946e-001 -1.645064e+002 7.341629e-001 7.062870e+001
1485000000 8.900874e-001 7.522881e+001 3.962620e-001 -1.647742e+002 3.980205e-001 -1.648450e+002 7.341430e-001 7.040012e+001
1487500000 8.839199e-001 7.448883e+001 3.961903e-001 -1.655493e+002 3.979069e-001 -1.657707e+002 7.313049e-001 6.994596e+001
1490000000 8.789281e-001 7.368656e+001 3.963804e-001 -1.662976e+002 3.977175e-001 -1.664381e+002 7.314458e-001 6.951870e+001
1492500000 8.717271e-001 7.314545e+001 3.957985e-001 -1.668010e+002 3.963453e-001 -1.669202e+002 7.277595e-001 6.931106e+001
1495000000 8.664018e-001 7.242379e+001 3.960484e-001 -1.672873e+002 3.953407e-001 -1.673874e+002 7.263746e-001 6.907530e+001
1497500000 8.597447e-001 7.179263e+001 3.953706e-001 -1.678911e+002 3.954112e-001 -1.680680e+002 7.248197e-001 6.862321e+001
1500000000 8.513635e-001 7.116830e+001 3.938097e-001 -1.687248e+002 3.945782e-001 -1.686172e+002 7.221472e-001 6.853106e+001
1502500000 8.495494e-001 7.066246e+001 3.935162e-001 -1.689890e+002 3.932559e-001 -1.692114e+002 7.183055e-001 6.803381e+001
1505000000 8.423673e-001 6.994331e+001 3.922693e-001 -1.697466e+002 3.926650e-001 -1.698291e+002 7.176739e-001 6.772910e+001
1507500000 8.398805e-001 6.954417e+001 3.911347e-001 -1.701983e+002 3.938994e-001 -1.704047e+002 7.155386e-001 6.737149e+001
1510000000 8.312587e-001 6.906319e+001 3.915533e-001 -1.707362e+002 3.920728e-001 -1.709361e+002 7.153756e-001 6.710897e+001
1512500000 8.262885e-001 6.837334e+001 3.900452e-001 -1.712384e+002 3.907205e-001 -1.715269e+002 7.113742e-001 6.684299e+001
1515000000 8.219242e-001 6.792168e+001 3.899644e-001 -1.718318e+002 3.903182e-001 -1.719663e+002 7.107736e-001 6.644302e+001
1517500000 8.182236e-001 6.766198e+001 3.877022e-001 -1.721206e+002 3.904775e-001 -1.722585e+002 7.088326e-001 6.611911e+001
1520000000 8.110865e-001 6.697361e+001 3.869233e-001 -1.728591e+002 3.877399e-001 -1.729194e+002 7.047520e-001 6.587728e+001
1522500000 8.063939e-001 6.652979e+001 3.862716e-001 -1.730853e+002 3.888000e-001 -1.733910e+002 7.041714e-001 6.562072e+001
1525000000 8.012083e-001 6.603254e+001 3.869743e-001 -1.737310e+002 3.872244e-001 -1.739177e+002 7.019904e-001 6.539973e+001
1527500000 7.967209e-001 6.562038e+001 3.859976e-001 -1.741685e+002 3.867322e-001 -1.744332e+002 7.005846e-001 6.485762e+001
1530000000 7.951651e-001 6.528191e+001 3.862607e-001 -1.746174e+002 3.867587e-001 -1.747698e+002 6.993389e-001 6.465776e+001
1532500000 7.894887e-001 6.512286e+001 3.844521e-001 -1.750271e+002 3.849099e-001 -1.751695e+002 6.952503e-001 6.439482e+001
1535000000 7.850335e-001 6.437347e+001 3.827986e-001 -1.756716e+002 3.845410e-001 -1.757652e+002 6.939345e-001 6.409181e+001
1537500000 7.833096e-001 6.404781e+001 3.842008e-001 -1.761297e+002 3.831609e-001 -1.760976e+002 6.929167e-001 6.366644e+001
1540000000 7.764596e-001 6.382391e+001 3.818812e-001 -1.765443e+002 3.829872e-001 -1.764041e+002 6.898451e-001 6.358195e+001
1542500000 7.709886e-001 6.334124e+001 3.817508e-001 -1.769253e+002 3.826378e-001 -1.770705e+002 6.888760e-001 6.312341e+001
1545000000 7.670662e-001 6.290623e+001 3.807820e-001 -1.774892e+002 3.819779e-001 -1.775238e+002 6.873074e-001 6.286648e+001
1547500000 7.657146e-001 6.236332e+001 3.806437e-001 -1.779979e+002 3.804176e-001 -1.780806e+002 6.851318e-001 6.258064e+001
1550000000 7.622090e-001 6.233871e+001 3.783703e-001 -1.781492e+002 3.807959e-001 -1.784081e+002 6.837964e-001 6.224621e+001
1552500000 7.576728e-001 6.203625e+001 3.787045e-001 -1.787055e+002 3.788477e-001 -1.789801e+002 6.824957e-001 6.188952e+001
1555000000 7.541648e-001 6.152837e+001 3.768744e-001 -1.791772e+002 3.789102e-001 -1.792195e+002 6.803774e-001 6.160693e+001
1557500000 7.527489e-001 6.112083e+001 3.767488e-001 -1.794637e+002 3.781790e-001 -1.797662e+002 6.777474e-001 6.140760e+001
1560000000 7.489057e-001 6.077707e+001 3.765526e-001 1.799940e+002 3.763245e-001 1.797455e+002 6.742904e-001 6.099582e+001
1562500000 7.457346e-001 6.057513e+001 3.745038e-001 1.797966e+002 3.758184e-001 1.796338e+002 6.733837e-001 6.095457e+001
1565000000 7.427567e-001 6.026516e+001 3.738815e-001 1.794227e+002 3.748372e-001 1.791186e+002 6.724329e-001 6.067515e+001
1567500000 7.395851e-001 6.008540e+001 3.732540e-001 1.789674e+002 3.737088e-001 1.789881e+002 6.713238e-001 6.050720e+001
1570000000 7.365764e-001 5.970744e+001 3.711043e-001 1.787176e+002 3.726989e-001 1.784931e+002 6.679929e-001 6.027823e+001
1572500000 7.317672e-001 5.922531e+001 3.712934e-001 1.782969e+002 3.735678e-001 1.780704e+002 6.701617e-001 6.001469e+001
1575000000 7.305211e-001 5.890599e+001 3.712598e-001 1.779518e+002 3.712366e-001 1.777529e+002 6.677865e-001 5.963180e+001
1577500000 7.295213e-001 5.874227e+001 3.705839e-001 1.776566e+002 3.706481e-001 1.773353e+002 6.663564e-001 5.916550e+001
1580000000 7.270031e-001 5.836820e+001 3.701322e-001 1.773604e+002 3.713673e-001 1.772037e+002 6.652660e-001 5.903321e+001
1582500000 7.237045e-001 5.806689e+001 3.702983e-001 1.771451e+002 3.705110e-001 1.767612e+002 6.646284e-001 5.881358e+001
1585000000 7.225441e-001 5.764353e+001 3.690320e-001 1.765602e+002 3.696873e-001 1.763954e+002 6.630713e-001 5.843580e+001
1587500000 7.185847e-001 5.727339e+001 3.691869e-001 1.760285e+002 3.692690e-001 1.760690e+002 6.624858e-001 5.815768e+001
1590000000 7.181273e-001 5.719535e+001 3.689927e-001 1.758790e+002 3.707018e-001 1.758072e+002 6.628107e-001 5.777954e+001
1592500000 7.130732e-001 5.672489e+001 3.676635e-001 1.754002e+002 3.695865e-001 1.752795e+002 6.596608e-001 5.734789e+001
1595000000 7.135781e-001 5.639600e+001 3.688318e-001 1.751798e+002 3.690036e-001 1.750073e+002 6.579849e-001 5.703524e+001
1597500000 7.088667e-001 5.588883e+001 3.678167e-001 1.746659e+002 3.686997e-001 1.744454e+002 6.575249e-001 5.669183e+001
1600000000 7.077653e-001 5.586248e+001 3.689409e-001 1.744815e+002 3.689628e-001 1.743222e+002 6.568219e-001 5.644913e+001
1602500000 7.041375e-001 5.549934e+001 3.678470e-001 1.740647e+002 3.681007e-001 1.738739e+002 6.538661e-001 5.612827e+001
1605000000 7.018132e-001 5.492699e+001 3.662257e-001 1.735859e+002 3.680252e-001 1.733777e+002 6.511742e-001 5.569393e+001
1607500000 6.991359e-001 5.478324e+001 3.671540e-001 1.732318e+002 3.675888e-001 1.728388e+002 6.488693e-001 5.527470e+001
1610000000 6.965884e-001 5.437373e+001 3.675782e-001 1.728197e+002 3.665642e-001 1.727046e+002 6.478866e-001 5.508250e+001
1612500000 6.949726e-001 5.394770e+001 3.669449e-001 1.722820e+002 3.665718e-001 1.720101e+002 6.468175e-001 5.460703e+001
1615000000 6.927590e-001 5.384614e+001 3.661204e-001 1.718230e+002 3.671724e-001 1.717441e+002 6.458743e-001 5.436646e+001
1617500000 6.903394e-001 5.367764e+001 3.656341e-001 1.716474e+002 3.661319e-001 1.712824e+002 6.427221e-001 5.405110e+001
1620000000 6.870856e-001 5.318908e+001 3.646819e-001 1.711044e+002 3.656507e-001 1.708557e+002 6.425514e-001 5.365991e+001
1622500000 6.835501e-001 5.290854e+001 3.648613e-001 1.707066e+002 3.645645e-001 1.705482e+002 6.400695e-001 5.343319e+001
1625000000 6.817541e-001 5.232336e+001 3.633680e-001 1.702881e+002 3.655706e-001 1.701495e+002 6.385898e-001 5.318316e+001
1627500000 6.784844e-001 5.212325e+001 3.638407e-001 1.698828e+002 3.643229e-001 1.696886e+002 6.374789e-001 5.269181e+001
1630000000 6.741794e-001 5.182399e+001 3.616229e-001 1.693524e+002 3.633265e-001 1.693304e+002 6.347855e-001 5.243092e+001
1632500000 6.734677e-001 5.142911e+001 3.609160e-001 1.691915e+002 3.634969e-001 1.690039e+002 6.314920e-001 5.226062e+001
1635000000 6.717976e-001 5.113356e+001 3.612854e-001 1.687262e+002 3.626731e-001 1.684490e+002 6.321304e-001 5.183750e+001
1637500000 6.665005e-001 5.088480e+001 3.612896e-001 1.681751e+002 3.611234e-001 1.681065e+002 6.303617e-001 5.145219e+001
1640000000 6.646098e-001 5.064934e+001 3.604743e-001 1.679115e+002 3.615147e-001 1.678163e+002 6.273341e-001 5.126664e+001
1642500000 6.620598e-001 5.025005e+001 3.593166e-001 1.673954e+002 3.601711e-001 1.673745e+002 6.254742e-001 5.093771e+001
1645000000 6.596563e-001 5.004559e+001 3.588783e-001 1.670531e+002 3.592752e-001 1.669118e+002 6.234822e-001 5.054741e+001
1647500000 6.576208e-001 4.972924e+001 3.582863e-001 1.666015e+002 3.593243e-001 1.666396e+002 6.230629e-001 5.023652e+001
1650000000 6.561632e-001 4.964417e+001 3.579273e-001 1.662971e+002 3.586895e-001 1.663219e+002 6.213087e-001 4.996442e+001
1652500000 6.538734e-001 4.919319e+001 3.577335e-001 1.660347e+002 3.579553e-001 1.660295e+002 6.201252e-001 4.982047e+001
1655000000 6.514412e-001 4.893682e+001 3.566841e-001 1.656439e+002 3.570511e-001 1.656148e+002 6.172401e-001 4.934153e+001
1657500000 6.489004e-001 4.874111e+001 3.565800e-001 1.654599e+002 3.565931e-001 1.652467e+002 6.161332e-001 4.905190e+001
1660000000 6.472966e-001 4.873984e+001 3.567100e-001 1.650151e+002 3.572032e-001 1.646151e+002 6.154664e-001 4.866898e+001
1662500000 6.462384e-001 4.837684e+001 3.552383e-001 1.646672e+002 3.558050e-001 1.645118e+002 6.134254e-001 4.852002e+001
1665000000 6.434389e-001 4.785762e+001 3.557510e-001 1.643626e+002 3.560088e-001 1.640837e+002 6.113998e-001 4.807692e+001
1667500000 6.390249e-001 4.742579e+001 3.539674e-001 1.636821e+002 3.553658e-001 1.635169e+002 6.088091e-001 4.757055e+001
1670000000 6.415955e-001 4.736058e+001 3.550457e-001 1.635921e+002 3.552076e-001 1.633597e+002 6.074952e-001 4.750456e+001
1672500000 6.336903e-001 4.674738e+001 3.534224e-001 1.630558e+002 3.549038e-001 1.630334e+002 6.056268e-001 4.716898e+001
1675000000 6.325461e-001 4.680430e+001 3.529445e-001 1.628084e+002 3.545699e-001 1.627434e+002 6.055766e-001 4.678511e+001
1677500000 6.297144e-001 4.641581e+001 3.537854e-001 1.625588e+002 3.530875e-001 1.623383e+002 6.027581e-001 4.642070e+001
1680000000 6.267156e-001 4.621976e+001 3.531501e-001 1.620420e+002 3.519426e-001 1.618560e+002 5.998766e-001 4.612256e+001
1682500000 6.262568e-001 4.570673e+001 3.529213e-001 1.615916e+002 3.532828e-001 1.615755e+002 5.987643e-001 4.582657e+001
1685000000 6.248772e-001 4.562858e+001 3.527805e-001 1.611074e+002 3.523642e-001 1.610051e+002 5.960341e-001 4.528699e+001
1687500000 6.199263e-001 4.523068e+001 3.513244e-001 1.605608e+002 3.519960e-001 1.605700e+002 5.935022e-001 4.495094e+001
1690000000 6.189371e-001 4.515274e+001 3.504615e-001 1.603350e+002 3.515631e-001 1.603692e+002 5.918410e-001 4.472743e+001
1692500000 6.177398e-001 4.468650e+001 3.504477e-001 1.598165e+002 3.509397e-001 1.599122e+002 5.901214e-001 4.432665e+001
1695000000 6.142250e-001 4.437641e+001 3.488308e-001 1.593588e+002 3.502966e-001 1.592587e+002 5.888315e-001 4.385798e+001
1697500000 6.132456e-001 4.421702e+001 3.507428e-001 1.590906e+002 3.490984e-001 1.591510e+002 5.859075e-001 4.371066e+001
1700000000 6.112193e-001 4.400803e+001 3.500208e-001 1.588733e+002 3.494084e-001 1.586245e+002 5.840013e-001 4.337383e+001
1702500000 6.104940e-001 4.370265e+001 3.502326e-001 1.584390e+002 3.499665e-001 1.579584e+002 5.837988e-001 4.297951e+001
1705000000 6.090437e-001 4.328720e+001 3.489898e-001 1.580424e+002 3.502880e-001 1.577841e+002 5.828297e-001 4.271300e+001
1707500000 6.052310e-001 4.297049e+001 3.492155e-001 1.576516e+002 3.496099e-001 1.574420e+002 5.790733e-001 4.240040e+001
1710000000 6.022493e-001 4.282016e+001 3.470075e-001 1.570743e+002 3.471228e-001 1.569625e+002 5.746623e-001 4.197256e+001
1712500000 5.989594e-001 4.240612e+001 3.466969e-001 1.568120e+002 3.466446e-001 1.566134e+002 5.744300e-001 4.178782e+001
1715000000 5.987828e-001 4.224823e+001 3.453848e-001 1.563523e+002 3.463295e-001 1.562308e+002 5.709571e-001 4.137252e+001
1717500000 5.953297e-001 4.186701e+001 3.451907e-001 1.559934e+002 3.456825e-001 1.557955e+002 5.687367e-001 4.108056e+001
1720000000 5.940855e-001 4.138705e+001 3.431979e-001 1.554523e+002 3.455715e-001 1.553082e+002 5.666733e-001 4.074477e+001
1722500000 5.906855e-001 4.111768e+001 3.434801e-001 1.548523e+002 3.454479e-001 1.546625e+002 5.635533e-001 4.027568e+001
1725000000 5.883366e-001 4.105590e+001 3.429695e-001 1.545228e+002 3.443058e-001 1.543811e+002 5.620523e-001 4.007753e+001
1727500000 5.831835e-001 4.078857e+001 3.411582e-001 1.543134e+002 3.429632e-001 1.541832e+002 5.612304e-001 3.978441e+001
1730000000 5.856492e-001 4.051974e+001 3.419040e-001 1.538878e+002 3.423284e-001 1.536882e+002 5.583440e-001 3.952306e+001
1732500000 5.835395e-001 4.006399e+001 3.406662e-001 1.532924e+002 3.412776e-001 1.533063e+002 5.558022e-001 3.912526e+001
1735000000 5.782215e-001 3.983179e+001 3.401562e-001 1.531689e+002 3.405004e-001 1.529884e+002 5.564805e-001 3.907942e+001
1737500000 5.754297e-001 3.981566e+001 3.388513e-001 1.529040e+002 3.399336e-001 1.524334e+002 5.519354e-001 3.856623e+001
1740000000 5.746207e-001 3.966420e+001 3.387088e-001 1.523858e+002 3.385362e-001 1.524213e+002 5.493928e-001 3.831565e+001
1742500000 5.727032e-001 3.890557e+001 3.373379e-001 1.519461e+002 3.376225e-001 1.518495e+002 5.476928e-001 3.821562e+001
1745000000 5.702269e-001 3.885549e+001 3.367352e-001 1.514512e+002 3.379191e-001 1.512970e+002 5.457021e-001 3.766226e+001
1747500000 5.698740e-001 3.873683e+001 3.367386e-001 1.512995e+002 3.374113e-001 1.510049e+002 5.441408e-001 3.736355e+001
1750000000 5.665922e-001 3.835071e+001 3.355461e-001 1.508383e+002 3.369120e-001 1.505443e+002 5.432665e-001 3.710178e+001
1752500000 5.674390e-001 3.809541e+001 3.351658e-001 1.504885e+002 3.363737e-001 1.503884e+002 5.395547e-001 3.675624e+001
1755000000 5.636963e-001 3.796500e+001 3.338878e-001 1.502800e+002 3.351336e-001 1.498084e+002 5.380480e-001 3.634379e+001
1757500000 5.607652e-001 3.753457e+001 3.331634e-001 1.498088e+002 3.339238e-001 1.494942e+002 5.349223e-001 3.607390e+001
1760000000 5.588382e-001 3.713686e+001 3.317350e-001 1.490695e+002 3.338756e-001 1.490020e+002 5.326856e-001 3.573563e+001
1762500000 5.551623e-001 3.683546e+001 3.312491e-001 1.488912e+002 3.330928e-001 1.486025e+002 5.310042e-001 3.550319e+001
1765000000 5.540408e-001 3.645340e+001 3.314488e-001 1.485561e+002 3.319423e-001 1.482847e+002 5.278588e-001 3.503791e+001
1767500000 5.541333e-001 3.623124e+001 3.304703e-001 1.479403e+002 3.315745e-001 1.480104e+002 5.277811e-001 3.474935e+001
1770000000 5.500056e-001 3.597808e+001 3.296456e-001 1.476772e+002 3.300412e-001 1.476909e+002 5.236790e-001 3.461527e+001
1772500000 5.477020e-001 3.571607e+001 3.283865e-001 1.473258e+002 3.291041e-001 1.472809e+002 5.217746e-001 3.432399e+001
1775000000 5.450104e-001 3.526063e+001 3.270664e-001 1.469693e+002 3.281603e-001 1.468346e+002 5.199662e-001 3.399914e+001
1777500000 5.410371e-001 3.508933e+001 3.261440e-001 1.467553e+002 3.272608e-001 1.465490e+002 5.174576e-001 3.379597e+001
1780000000 5.409231e-001 3.483539e+001 3.255248e-001 1.465972e+002 3.271877e-001 1.463885e+002 5.176877e-001 3.363607e+001
1782500000 5.397938e-001 3.452722e+001 3.258270e-001 1.461193e+002 3.255872e-001 1.458992e+002 5.143154e-001 3.320739e+001
1785000000 5.369433e-001 3.435817e+001 3.248429e-001 1.457503e+002 3.249269e-001 1.454504e+002 5.132076e-001 3.286281e+001
1787500000 5.358825e-001 3.416538e+001 3.239744e-001 1.454676e+002 3.249327e-001 1.452654e+002 5.111814e-001 3.262798e+001
1790000000 5.336147e-001 3.367014e+001 3.243722e-001 1.450306e+002 3.243534e-001 1.449115e+002 5.098844e-001 3.222871e+001
1792500000 5.311942e-001 3.329840e+001 3.231715e-001 1.446682e+002 3.238023e-001 1.445950e+002 5.077050e-001 3.191388e+001
1795000000 5.298040e-001 3.296304e+001 3.224124e-001 1.442586e+002 3.231993e-001 1.443760e+002 5.052986e-001 3.171937e+001
1797500000 5.258900e-001 3.258860e+001 3.212571e-001 1.440951e+002 3.222043e-001 1.438840e+002 5.036614e-001 3.133754e+001
1800000000 5.253393e-001 3.248162e+001 3.219286e-001 1.437311e+002 3.223778e-001 1.437298e+002 5.005817e-001 3.109762e+001
1802500000 5.229320e-001 3.196617e+001 3.209587e-001 1.434392e+002 3.227083e-001 1.431035e+002 4.986872e-001 3.080224e+001
1805000000 5.204093e-001 3.150837e+001 3.209261e-001 1.428265e+002 3.207382e-001 1.426963e+002 4.975422e-001 3.043676e+001
1807500000 5.171155e-001 3.133122e+001 3.199973e-001 1.426414e+002 3.212702e-001 1.425227e+002 4.954690e-001 3.011176e+001
1810000000 5.150309e-001 3.101003e+001 3.194448e-001 1.422380e+002 3.206737e-001 1.420028e+002 4.936309e-001 2.974792e+001
1812500000 5.134282e-001 3.065851e+001 3.195676e-001 1.417403e+002 3.205257e-001 1.417336e+002 4.908882e-001 2.952217e+001
1815000000 5.109614e-001 3.035509e+001 3.187375e-001 1.414740e+002 3.193856e-001 1.413714e+002 4.895714e-001 2.934014e+001
1817500000 5.075657e-001 2.993847e+001 3.187574e-001 1.410108e+002 3.190141e-001 1.409296e+002 4.888681e-001 2.900521e+001
1820000000 5.060632e-001 2.962509e+001 3.174590e-001 1.406910e+002 3.180330e-001 1.405810e+002 4.865327e-001 2.858360e+001
1822500000 5.032777e-001 2.937737e+001 3.174271e-001 1.404863e+002 3.192257e-001 1.402389e+002 4.846475e-001 2.823009e+001
1825000000 5.014815e-001 2.902489e+001 3.177541e-001 1.400160e+002 3.183687e-001 1.397125e+002 4.822010e-001 2.769695e+001
1827500000 5.005062e-001 2.843125e+001 3.181141e-001 1.393859e+002 3.189701e-001 1.391691e+002 4.800239e-001 2.735545e+001
1830000000 4.964697e-001 2.824131e+001 3.171494e-001 1.390981e+002 3.168030e-001 1.388331e+002 4.776302e-001 2.713212e+001
1832500000 4.934612e-001 2.798107e+001 3.160772e-001 1.385789e+002 3.154271e-001 1.385847e+002 4.755717e-001 2.696686e+001
1835000000 4.923242e-001 2.777595e+001 3.155290e-001 1.383696e+002 3.153208e-001 1.383166e+002 4.737552e-001 2.678040e+001
1837500000 4.895845e-001 2.731238e+001 3.145225e-001 1.379314e+002 3.147446e-001 1.378705e+002 4.722234e-001 2.644153e+001
1840000000 4.875793e-001 2.692994e+001 3.149934e-001 1.373372e+002 3.143405e-001 1.374807e+002 4.709853e-001 2.618391e+001
1842500000 4.845971e-001 2.667493e+001 3.141976e-001 1.371232e+002 3.139271e-001 1.369461e+002 4.695960e-001 2.566141e+001
