!Agilent Technologies,E8363B,MY43030801,A.06.04.21
!Agilent E8363B: A.06.04.21
!Date: Friday, October 24, 2025 08:33:55
!Correction: S11(Full 2 Port(1,2)) S21(Full 2 Port(1,2)) S12(Full 2 Port(1,2)) S22(Full 2 Port(1,2)) 
!S2P File: Measurements: S11, S21, S12, S22:
# Hz S  MA   R 50
1450000000 9.437188e-001 9.156036e+001 3.642129e-001 -1.532391e+002 3.645110e-001 -1.535964e+002 7.686497e-001 7.306740e+001
1452500000 9.479414e-001 9.001005e+001 3.695428e-001 -1.541842e+002 3.703544e-001 -1.542780e+002 7.693788e-001 7.258065e+001
1455000000 9.523572e-001 8.852051e+001 3.716064e-001 -1.551452e+002 3.720911e-001 -1.551080e+002 7.627735e-001 7.230483e+001
1457500000 9.516054e-001 8.698823e+001 3.747003e-001 -1.559794e+002 3.754786e-001 -1.562148e+002 7.617426e-001 7.179134e+001
1460000000 9.477983e-001 8.561859e+001 3.763525e-001 -1.568322e+002 3.772168e-001 -1.570449e+002 7.588470e-001 7.152832e+001
1462500000 9.464194e-001 8.459906e+001 3.785490e-001 -1.577263e+002 3.791589e-001 -1.577605e+002 7.587565e-001 7.129095e+001
1465000000 9.451688e-001 8.326231e+001 3.808914e-001 -1.584459e+002 3.807739e-001 -1.586711e+002 7.548996e-001 7.088480e+001
1467500000 9.370964e-001 8.205463e+001 3.802106e-001 -1.593389e+002 3.818361e-001 -1.597659e+002 7.521074e-001 7.043280e+001
1470000000 9.326984e-001 8.085167e+001 3.820033e-001 -1.604607e+002 3.820079e-001 -1.605397e+002 7.478840e-001 7.004609e+001
1472500000 9.282049e-001 7.972375e+001 3.826759e-001 -1.611354e+002 3.821063e-001 -1.611623e+002 7.477215e-001 6.992464e+001
1475000000 9.210266e-001 7.879134e+001 3.816074e-001 -1.618034e+002 3.819210e-001 -1.618644e+002 7.444605e-001 6.965201e+001
1477500000 9.141606e-001 7.811741e+001 3.801821e-001 -1.624251e+002 3.818445e-001 -1.625645e+002 7.422368e-001 6.929414e+001
1480000000 9.074211e-001 7.707803e+001 3.804963e-001 -1.633806e+002 3.824657e-001 -1.636280e+002 7.397809e-001 6.871958e+001
1482500000 9.036049e-001 7.624371e+001 3.811653e-001 -1.639465e+002 3.818681e-001 -1.642996e+002 7.372899e-001 6.856789e+001
1485000000 8.972510e-001 7.544926e+001 3.818121e-001 -1.646529e+002 3.830444e-001 -1.646507e+002 7.367488e-001 6.832676e+001
1487500000 8.926556e-001 7.457520e+001 3.813641e-001 -1.653412e+002 3.823667e-001 -1.655775e+002 7.338526e-001 6.781961e+001
1490000000 8.876005e-001 7.405070e+001 3.812923e-001 -1.659001e+002 3.815939e-001 -1.662237e+002 7.334694e-001 6.756211e+001
1492500000 8.785578e-001 7.351765e+001 3.802454e-001 -1.665941e+002 3.804406e-001 -1.668135e+002 7.301520e-001 6.730378e+001
1495000000 8.712369e-001 7.270409e+001 3.796731e-001 -1.670913e+002 3.800854e-001 -1.672825e+002 7.295321e-001 6.702573e+001
1497500000 8.662396e-001 7.201023e+001 3.779876e-001 -1.678591e+002 3.790548e-001 -1.678764e+002 7.271882e-001 6.671066e+001
1500000000 8.595700e-001 7.127847e+001 3.783941e-001 -1.684958e+002 3.785599e-001 -1.685646e+002 7.252017e-001 6.646718e+001
1502500000 8.566749e-001 7.109566e+001 3.776743e-001 -1.688099e+002 3.782984e-001 -1.691314e+002 7.230226e-001 6.594382e+001
1505000000 8.491623e-001 7.037448e+001 3.763042e-001 -1.694853e+002 3.767671e-001 -1.695851e+002 7.204120e-001 6.576920e+001
1507500000 8.469860e-001 6.977534e+001 3.756885e-001 -1.700908e+002 3.773634e-001 -1.701911e+002 7.189716e-001 6.536975e+001
1510000000 8.396779e-001 6.941167e+001 3.765428e-001 -1.705334e+002 3.755275e-001 -1.706360e+002 7.177942e-001 6.510848e+001
1512500000 8.341936e-001 6.880005e+001 3.747766e-001 -1.710232e+002 3.753265e-001 -1.713775e+002 7.160510e-001 6.478719e+001
1515000000 8.320098e-001 6.837093e+001 3.749502e-001 -1.714720e+002 3.745030e-001 -1.719397e+002 7.148880e-001 6.430889e+001
1517500000 8.241609e-001 6.774579e+001 3.729488e-001 -1.721004e+002 3.744488e-001 -1.721613e+002 7.123677e-001 6.408973e+001
1520000000 8.199593e-001 6.722406e+001 3.725569e-001 -1.726865e+002 3.727840e-001 -1.728039e+002 7.099396e-001 6.387281e+001
1522500000 8.161165e-001 6.679812e+001 3.702310e-001 -1.731158e+002 3.730071e-001 -1.732543e+002 7.091495e-001 6.355589e+001
1525000000 8.096171e-001 6.628481e+001 3.700893e-001 -1.736668e+002 3.709824e-001 -1.738957e+002 7.058585e-001 6.328787e+001
1527500000 8.061846e-001 6.594359e+001 3.698745e-001 -1.740485e+002 3.698114e-001 -1.742159e+002 7.042815e-001 6.288492e+001
1530000000 8.043800e-001 6.558288e+001 3.704547e-001 -1.745290e+002 3.709420e-001 -1.746873e+002 7.045318e-001 6.255637e+001
1532500000 7.968783e-001 6.516415e+001 3.688414e-001 -1.749986e+002 3.690144e-001 -1.750623e+002 7.008725e-001 6.229482e+001
1535000000 7.928297e-001 6.461906e+001 3.669331e-001 -1.754693e+002 3.683373e-001 -1.756362e+002 6.986632e-001 6.202836e+001
1537500000 7.861108e-001 6.431465e+001 3.667235e-001 -1.760293e+002 3.670828e-001 -1.759237e+002 6.980320e-001 6.161043e+001
1540000000 7.868992e-001 6.404773e+001 3.667412e-001 -1.763304e+002 3.670374e-001 -1.762326e+002 6.945148e-001 6.157258e+001
1542500000 7.806785e-001 6.360302e+001 3.651103e-001 -1.767945e+002 3.659121e-001 -1.768357e+002 6.934814e-001 6.122321e+001
1545000000 7.748834e-001 6.329572e+001 3.645648e-001 -1.772030e+002 3.657593e-001 -1.772210e+002 6.927657e-001 6.086255e+001
1547500000 7.708221e-001 6.272661e+001 3.636413e-001 -1.778528e+002 3.646193e-001 -1.778922e+002 6.898406e-001 6.053472e+001
1550000000 7.703853e-001 6.250283e+001 3.624940e-001 -1.780664e+002 3.640262e-001 -1.782366e+002 6.889554e-001 6.023981e+001
1552500000 7.667590e-001 6.215194e+001 3.634276e-001 -1.785647e+002 3.629256e-001 -1.787062e+002 6.880844e-001 5.985082e+001
1555000000 7.632750e-001 6.203030e+001 3.613988e-001 -1.788608e+002 3.625826e-001 -1.790218e+002 6.857573e-001 5.963441e+001
1557500000 7.598248e-001 6.131495e+001 3.605576e-001 -1.793524e+002 3.609419e-001 -1.795618e+002 6.812723e-001 5.938831e+001
1560000000 7.555739e-001 6.139499e+001 3.594380e-001 -1.797379e+002 3.597564e-001 1.799107e+002 6.792204e-001 5.900994e+001
1562500000 7.507219e-001 6.097022e+001 3.576234e-001 1.799374e+002 3.588570e-001 1.797038e+002 6.782959e-001 5.886312e+001
1565000000 7.498512e-001 6.063853e+001 3.582640e-001 1.795269e+002 3.577160e-001 1.792124e+002 6.776417e-001 5.857220e+001
1567500000 7.438391e-001 6.026736e+001 3.565050e-001 1.790893e+002 3.570022e-001 1.792064e+002 6.761426e-001 5.847756e+001
1570000000 7.428960e-001 5.999580e+001 3.544645e-001 1.788123e+002 3.563754e-001 1.786046e+002 6.727884e-001 5.818995e+001
1572500000 7.392640e-001 5.953941e+001 3.543648e-001 1.784381e+002 3.560708e-001 1.783799e+002 6.748032e-001 5.795717e+001
1575000000 7.362069e-001 5.933275e+001 3.542664e-001 1.780387e+002 3.537924e-001 1.781104e+002 6.704774e-001 5.764117e+001
1577500000 7.345814e-001 5.921053e+001 3.533943e-001 1.779760e+002 3.536672e-001 1.778103e+002 6.710629e-001 5.725815e+001
1580000000 7.336320e-001 5.878585e+001 3.528136e-001 1.776761e+002 3.536910e-001 1.774033e+002 6.682131e-001 5.692870e+001
1582500000 7.310494e-001 5.840447e+001 3.526898e-001 1.773944e+002 3.535694e-001 1.771289e+002 6.687058e-001 5.683287e+001
1585000000 7.270505e-001 5.809549e+001 3.511621e-001 1.767498e+002 3.526283e-001 1.766818e+002 6.668282e-001 5.637317e+001
1587500000 7.252286e-001 5.768434e+001 3.517930e-001 1.764768e+002 3.517148e-001 1.763933e+002 6.657595e-001 5.613249e+001
1590000000 7.246563e-001 5.751470e+001 3.517806e-001 1.761324e+002 3.533207e-001 1.761401e+002 6.650304e-001 5.576603e+001
1592500000 7.191709e-001 5.723910e+001 3.503128e-001 1.758825e+002 3.521265e-001 1.757363e+002 6.638234e-001 5.555900e+001
1595000000 7.180270e-001 5.680729e+001 3.513228e-001 1.755303e+002 3.518193e-001 1.753274e+002 6.624118e-001 5.511482e+001
1597500000 7.114642e-001 5.629805e+001 3.499381e-001 1.749941e+002 3.515622e-001 1.749702e+002 6.622015e-001 5.483676e+001
1600000000 7.128953e-001 5.601854e+001 3.522544e-001 1.747124e+002 3.513752e-001 1.745844e+002 6.611296e-001 5.453189e+001
1602500000 7.075748e-001 5.580285e+001 3.500226e-001 1.743951e+002 3.512338e-001 1.741024e+002 6.580589e-001 5.418346e+001
1605000000 7.055495e-001 5.558224e+001 3.493328e-001 1.740246e+002 3.503408e-001 1.737141e+002 6.547922e-001 5.380119e+001
1607500000 7.030870e-001 5.535707e+001 3.492424e-001 1.735553e+002 3.495599e-001 1.733593e+002 6.525208e-001 5.354145e+001
1610000000 7.016641e-001 5.511310e+001 3.492659e-001 1.732044e+002 3.491053e-001 1.729478e+002 6.521779e-001 5.314509e+001
1612500000 6.966283e-001 5.476500e+001 3.485200e-001 1.727110e+002 3.488574e-001 1.723612e+002 6.505035e-001 5.283593e+001
1615000000 6.959620e-001 5.443589e+001 3.473301e-001 1.721445e+002 3.475925e-001 1.720737e+002 6.474228e-001 5.249562e+001
1617500000 6.918973e-001 5.423633e+001 3.473919e-001 1.720023e+002 3.477038e-001 1.717770e+002 6.474202e-001 5.220341e+001
1620000000 6.892309e-001 5.397937e+001 3.467703e-001 1.715083e+002 3.480314e-001 1.712927e+002 6.460598e-001 5.178989e+001
1622500000 6.864288e-001 5.372849e+001 3.459367e-001 1.712047e+002 3.467973e-001 1.709720e+002 6.430596e-001 5.154927e+001
1625000000 6.876501e-001 5.324659e+001 3.457799e-001 1.706901e+002 3.473577e-001 1.703905e+002 6.417616e-001 5.114711e+001
1627500000 6.823738e-001 5.288279e+001 3.451327e-001 1.703782e+002 3.459577e-001 1.699106e+002 6.405405e-001 5.062790e+001
1630000000 6.779941e-001 5.266654e+001 3.432999e-001 1.698522e+002 3.446304e-001 1.698273e+002 6.378033e-001 5.043536e+001
1632500000 6.762089e-001 5.239208e+001 3.421441e-001 1.696119e+002 3.447413e-001 1.695449e+002 6.354246e-001 5.038939e+001
1635000000 6.733292e-001 5.217060e+001 3.422952e-001 1.690703e+002 3.439190e-001 1.690058e+002 6.336592e-001 4.992254e+001
1637500000 6.730928e-001 5.186394e+001 3.432266e-001 1.686861e+002 3.426114e-001 1.686872e+002 6.324919e-001 4.957117e+001
1640000000 6.699576e-001 5.158689e+001 3.412222e-001 1.684600e+002 3.423811e-001 1.684544e+002 6.287447e-001 4.948907e+001
1642500000 6.670915e-001 5.133373e+001 3.403953e-001 1.681201e+002 3.413473e-001 1.679448e+002 6.286771e-001 4.907401e+001
1645000000 6.667847e-001 5.107888e+001 3.409111e-001 1.677337e+002 3.403878e-001 1.674866e+002 6.257850e-001 4.873049e+001
1647500000 6.642356e-001 5.081297e+001 3.395678e-001 1.673485e+002 3.402746e-001 1.672725e+002 6.242396e-001 4.835990e+001
1650000000 6.606291e-001 5.077096e+001 3.387004e-001 1.671214e+002 3.390346e-001 1.671290e+002 6.215849e-001 4.823128e+001
1652500000 6.587616e-001 5.051849e+001 3.388593e-001 1.667590e+002 3.392375e-001 1.666956e+002 6.215863e-001 4.801577e+001
1655000000 6.560589e-001 4.995078e+001 3.377170e-001 1.663803e+002 3.389333e-001 1.663242e+002 6.192562e-001 4.753576e+001
1657500000 6.561742e-001 4.973005e+001 3.380129e-001 1.661893e+002 3.374176e-001 1.659968e+002 6.169984e-001 4.736311e+001
1660000000 6.529320e-001 4.972892e+001 3.372251e-001 1.658301e+002 3.378958e-001 1.654290e+002 6.147416e-001 4.691122e+001
1662500000 6.500719e-001 4.949369e+001 3.366667e-001 1.654580e+002 3.374678e-001 1.651761e+002 6.135084e-001 4.674396e+001
1665000000 6.491098e-001 4.893861e+001 3.373473e-001 1.650378e+002 3.381442e-001 1.648082e+002 6.134928e-001 4.643458e+001
1667500000 6.451448e-001 4.882940e+001 3.360963e-001 1.647605e+002 3.366522e-001 1.644378e+002 6.088872e-001 4.611908e+001
1670000000 6.449362e-001 4.840991e+001 3.363450e-001 1.643297e+002 3.364017e-001 1.641983e+002 6.082243e-001 4.590537e+001
1672500000 6.421018e-001 4.835624e+001 3.349261e-001 1.639889e+002 3.357652e-001 1.638175e+002 6.065016e-001 4.558191e+001
1675000000 6.373429e-001 4.801182e+001 3.344900e-001 1.637023e+002 3.357645e-001 1.633968e+002 6.056881e-001 4.520984e+001
1677500000 6.373849e-001 4.792619e+001 3.339790e-001 1.634285e+002 3.341100e-001 1.630921e+002 6.030543e-001 4.488095e+001
1680000000 6.344398e-001 4.744061e+001 3.332915e-001 1.629737e+002 3.333296e-001 1.626324e+002 6.009493e-001 4.463992e+001
1682500000 6.340340e-001 4.710573e+001 3.339537e-001 1.624604e+002 3.343019e-001 1.622292e+002 5.987029e-001 4.418830e+001
1685000000 6.338540e-001 4.685355e+001 3.328387e-001 1.619461e+002 3.339178e-001 1.619554e+002 5.964447e-001 4.390473e+001
1687500000 6.296940e-001 4.664296e+001 3.329926e-001 1.617029e+002 3.336914e-001 1.614790e+002 5.946041e-001 4.365215e+001
1690000000 6.280998e-001 4.642695e+001 3.324080e-001 1.612651e+002 3.320530e-001 1.609809e+002 5.919499e-001 4.325813e+001
1692500000 6.248348e-001 4.596171e+001 3.319302e-001 1.607940e+002 3.316165e-001 1.607961e+002 5.907860e-001 4.307866e+001
1695000000 6.233753e-001 4.569220e+001 3.298476e-001 1.602195e+002 3.307132e-001 1.602597e+002 5.882504e-001 4.260772e+001
1697500000 6.205977e-001 4.542898e+001 3.299170e-001 1.599397e+002 3.299091e-001 1.599730e+002 5.864944e-001 4.238033e+001
1700000000 6.189184e-001 4.518713e+001 3.298326e-001 1.598717e+002 3.302889e-001 1.595439e+002 5.847694e-001 4.205140e+001
1702500000 6.198813e-001 4.496798e+001 3.304082e-001 1.593942e+002 3.307658e-001 1.589585e+002 5.838260e-001 4.176164e+001
1705000000 6.145007e-001 4.476937e+001 3.297139e-001 1.590990e+002 3.301168e-001 1.585835e+002 5.832845e-001 4.130290e+001
1707500000 6.144920e-001 4.441282e+001 3.291462e-001 1.586207e+002 3.291037e-001 1.585095e+002 5.801364e-001 4.119694e+001
1710000000 6.116052e-001 4.402647e+001 3.269197e-001 1.579535e+002 3.275749e-001 1.578488e+002 5.760687e-001 4.071749e+001
1712500000 6.087776e-001 4.387577e+001 3.273866e-001 1.578770e+002 3.269995e-001 1.576172e+002 5.770455e-001 4.063553e+001
1715000000 6.072499e-001 4.375415e+001 3.253932e-001 1.575353e+002 3.266139e-001 1.573419e+002 5.738370e-001 4.025516e+001
1717500000 6.038776e-001 4.305794e+001 3.254584e-001 1.570138e+002 3.258966e-001 1.568483e+002 5.718805e-001 3.986344e+001
1720000000 6.025534e-001 4.295185e+001 3.240332e-001 1.566616e+002 3.246345e-001 1.565392e+002 5.699373e-001 3.961720e+001
1722500000 6.002753e-001 4.260020e+001 3.232940e-001 1.563023e+002 3.257066e-001 1.560029e+002 5.678853e-001 3.919160e+001
1725000000 5.991037e-001 4.251826e+001 3.224358e-001 1.558605e+002 3.233904e-001 1.557303e+002 5.649035e-001 3.900355e+001
1727500000 5.949327e-001 4.232769e+001 3.219025e-001 1.555616e+002 3.223277e-001 1.554430e+002 5.653465e-001 3.848801e+001
1730000000 5.939072e-001 4.196872e+001 3.226880e-001 1.551719e+002 3.217904e-001 1.551552e+002 5.626080e-001 3.848825e+001
1732500000 5.900726e-001 4.160651e+001 3.206391e-001 1.548269e+002 3.210028e-001 1.548054e+002 5.602322e-001 3.792050e+001
1735000000 5.883887e-001 4.118213e+001 3.212107e-001 1.545870e+002 3.202479e-001 1.543757e+002 5.605708e-001 3.772082e+001
1737500000 5.866244e-001 4.125935e+001 3.192475e-001 1.543293e+002 3.199306e-001 1.540766e+002 5.562243e-001 3.725979e+001
1740000000 5.839031e-001 4.088170e+001 3.190050e-001 1.537585e+002 3.189595e-001 1.539203e+002 5.551511e-001 3.708679e+001
1742500000 5.802692e-001 4.039125e+001 3.175502e-001 1.533461e+002 3.173605e-001 1.533431e+002 5.519716e-001 3.676878e+001
1745000000 5.797645e-001 4.037574e+001 3.170066e-001 1.530872e+002 3.176764e-001 1.528589e+002 5.490085e-001 3.635392e+001
1747500000 5.778834e-001 3.985553e+001 3.166667e-001 1.527152e+002 3.166660e-001 1.526095e+002 5.488599e-001 3.601754e+001
1750000000 5.733902e-001 3.988480e+001 3.157977e-001 1.522922e+002 3.174704e-001 1.521925e+002 5.468354e-001 3.571244e+001
1752500000 5.731267e-001 3.971720e+001 3.152387e-001 1.521263e+002 3.167053e-001 1.520233e+002 5.446296e-001 3.536485e+001
1755000000 5.708922e-001 3.937305e+001 3.139489e-001 1.519607e+002 3.153240e-001 1.516745e+002 5.430235e-001 3.491793e+001
1757500000 5.689375e-001 3.910711e+001 3.138963e-001 1.516198e+002 3.136963e-001 1.513413e+002 5.397421e-001 3.471501e+001
1760000000 5.655125e-001 3.888578e+001 3.122938e-001 1.511444e+002 3.136192e-001 1.508775e+002 5.378805e-001 3.430936e+001
1762500000 5.629401e-001 3.860630e+001 3.128707e-001 1.508625e+002 3.133929e-001 1.506991e+002 5.373954e-001 3.410933e+001
1765000000 5.637450e-001 3.822226e+001 3.120587e-001 1.505053e+002 3.130605e-001 1.503588e+002 5.339729e-001 3.366091e+001
1767500000 5.595672e-001 3.800705e+001 3.128405e-001 1.497828e+002 3.134848e-001 1.501275e+002 5.328802e-001 3.333274e+001
1770000000 5.559438e-001 3.794558e+001 3.119326e-001 1.495491e+002 3.115930e-001 1.498152e+002 5.286962e-001 3.309123e+001
1772500000 5.536619e-001 3.742096e+001 3.101568e-001 1.493091e+002 3.119332e-001 1.493079e+002 5.286211e-001 3.269413e+001
1775000000 5.528967e-001 3.704810e+001 3.096597e-001 1.490308e+002 3.114563e-001 1.488391e+002 5.264121e-001 3.231084e+001
1777500000 5.493464e-001 3.686031e+001 3.096339e-001 1.486460e+002 3.103773e-001 1.485457e+002 5.231309e-001 3.204292e+001
1780000000 5.496016e-001 3.662046e+001 3.092259e-001 1.484631e+002 3.102152e-001 1.482297e+002 5.216545e-001 3.172676e+001
1782500000 5.454941e-001 3.644498e+001 3.092294e-001 1.479816e+002 3.083423e-001 1.479650e+002 5.191053e-001 3.150410e+001
1785000000 5.426943e-001 3.625691e+001 3.080586e-001 1.476935e+002 3.078307e-001 1.474995e+002 5.169027e-001 3.111167e+001
1787500000 5.406033e-001 3.595169e+001 3.060193e-001 1.474815e+002 3.072698e-001 1.472966e+002 5.145522e-001 3.073974e+001
1790000000 5.397030e-001 3.556966e+001 3.068758e-001 1.469668e+002 3.064712e-001 1.469457e+002 5.118970e-001 3.048495e+001
1792500000 5.369865e-001 3.523406e+001 3.057122e-001 1.465887e+002 3.065816e-001 1.465894e+002 5.105447e-001 3.005339e+001
1795000000 5.345582e-001 3.510139e+001 3.053614e-001 1.464148e+002 3.061633e-001 1.463620e+002 5.077586e-001 2.976044e+001
1797500000 5.314605e-001 3.473712e+001 3.051692e-001 1.462227e+002 3.056530e-001 1.460103e+002 5.065845e-001 2.944521e+001
1800000000 5.315006e-001 3.449895e+001 3.052288e-001 1.457427e+002 3.058110e-001 1.457215e+002 5.025023e-001 2.907641e+001
1802500000 5.299798e-001 3.435606e+001 3.056347e-001 1.455369e+002 3.068878e-001 1.450608e+002 5.013925e-001 2.867573e+001
1805000000 5.266172e-001 3.379612e+001 3.052281e-001 1.447141e+002 3.050134e-001 1.448847e+002 4.992189e-001 2.843957e+001
1807500000 5.236819e-001 3.375235e+001 3.043261e-001 1.446492e+002 3.055849e-001 1.444626e+002 4.973343e-001 2.805111e+001
1810000000 5.233987e-001 3.343060e+001 3.043247e-001 1.441536e+002 3.050636e-001 1.438801e+002 4.935105e-001 2.757683e+001
1812500000 5.200374e-001 3.312680e+001 3.029012e-001 1.437738e+002 3.040148e-001 1.436183e+002 4.906050e-001 2.730449e+001
1815000000 5.186009e-001 3.269016e+001 3.029271e-001 1.432759e+002 3.043274e-001 1.432247e+002 4.886137e-001 2.711343e+001
1817500000 5.153736e-001 3.251081e+001 3.017633e-001 1.430698e+002 3.021354e-001 1.427461e+002 4.861216e-001 2.677198e+001
1820000000 5.135279e-001 3.217222e+001 3.008592e-001 1.426507e+002 3.017371e-001 1.424267e+002 4.838664e-001 2.648171e+001
1822500000 5.111137e-001 3.194760e+001 3.009756e-001 1.424254e+002 3.016209e-001 1.420963e+002 4.817978e-001 2.614796e+001
1825000000 5.089220e-001 3.171993e+001 2.996088e-001 1.420605e+002 3.003309e-001 1.417347e+002 4.789286e-001 2.575057e+001
1827500000 5.072671e-001 3.109422e+001 2.995681e-001 1.414384e+002 3.002749e-001 1.414449e+002 4.759744e-001 2.557369e+001
1830000000 5.044180e-001 3.098292e+001 2.998475e-001 1.411958e+002 2.997068e-001 1.410099e+002 4.753062e-001 2.507669e+001
1832500000 5.010441e-001 3.082506e+001 2.984652e-001 1.409175e+002 2.987020e-001 1.406752e+002 4.719861e-001 2.489081e+001
1835000000 4.994890e-001 3.052219e+001 2.985213e-001 1.405818e+002 2.984364e-001 1.403686e+002 4.699169e-001 2.467719e+001
1837500000 4.986577e-001 3.042291e+001 2.989042e-001 1.403801e+002 2.985789e-001 1.400835e+002 4.673506e-001 2.446781e+001
1840000000 4.953870e-001 2.988149e+001 2.974585e-001 1.396166e+002 2.982404e-001 1.396599e+002 4.663628e-001 2.418995e+001
1842500000 4.927493e-001 2.968455e+001 2.972024e-001 1.394007e+002 2.973060e-001 1.392684e+002 4.633754e-001 2.383692e+001
